#Time       v(a0)      v(cout)    v(sum0)    v(sum1)    v(sum2)    v(sum3)    v(sum4)    v(sum5)    v(sum6)    v(sum7)    v(sum8)    v(sum9)    v(sum10)   v(sum11)   v(sum12)   v(sum13)   v(sum14)   v(sum15)   v(sum16)   v(sum17)   v(sum18)   v(sum19)   v(sum20)   v(sum12)   v(sum22)   v(sum23)   v(sum24)   v(sum25)   v(sum26)   v(sum27)   v(sum28)   v(sum29)   v(sum30)   v(sum31)  
 0.        -329.E-15   10.552E-9  1.8        1.8        1.8        1.8        1.8        1.8        1.8        1.8        1.8        1.8        1.8        1.8        1.8        1.8        1.8        1.8        1.8        1.8        1.8        1.8        1.8        1.8        1.8        1.8        1.8        1.8        1.8        1.8        1.8        1.8        1.8        1.8       
 200.E-12   1.8       -153.85E-6  1.7997     1.8        1.8001     1.8        1.8001     1.8001     1.8        1.8001     1.8        1.8001     1.8002     1.8001     1.8001     1.8002     1.8001     1.8001     1.8        1.8001     1.8002     1.8002     1.8001     1.8001     1.8001     1.8001     1.8001     1.8001     1.8001     1.8001     1.8002     1.8001     1.8001     1.8001    
 400.E-12   1.8        154.97E-6  1.537      1.8        1.7999     1.8        1.8        1.7999     1.7998     1.8        1.8        1.8        1.8        1.8        1.8        1.8        1.8        1.8        1.7998     1.8        1.8        1.8        1.7998     1.8        1.7998     1.8        1.7998     1.8        1.8        1.8        1.7999     1.8        1.7999     1.8       
 600.E-12   1.8        164.42E-6 -0.11345    1.7247     1.7999     1.8        1.8        1.7999     1.7999     1.8        1.8        1.8        1.8        1.8        1.8        1.8        1.8        1.8        1.7999     1.8        1.8        1.8        1.7999     1.8        1.7999     1.7999     1.7999     1.8        1.8        1.8        1.7999     1.8        1.8        1.8       
 800.E-12   1.8        166.67E-6 -0.05709   -0.14909    1.7999     1.8        1.8        1.7999     1.7999     1.8        1.8        1.8        1.8        1.8        1.8        1.8        1.8        1.8        1.7999     1.8        1.8        1.8        1.7998     1.8        1.7998     1.8        1.7998     1.8        1.8        1.8        1.7999     1.8        1.7999     1.8       
 1.E-9      1.8        160.31E-6 -0.029622  -0.072509   1.7998     1.8        1.8        1.7999     1.7999     1.8        1.8        1.8        1.8        1.8        1.8        1.8        1.8        1.8        1.7998     1.8        1.8        1.8        1.7999     1.8        1.7999     1.7999     1.7999     1.8        1.8        1.8        1.7998     1.8        1.7999     1.8       
 1.2E-9     1.8        157.38E-6 -0.015598  -0.037085   1.6325     1.8        1.8        1.7999     1.7999     1.8        1.8        1.8        1.8        1.8        1.8        1.8        1.8        1.8        1.7999     1.8        1.8        1.8        1.7999     1.8        1.7999     1.7999     1.7999     1.8        1.8        1.8        1.7999     1.8        1.8        1.8       
 1.4E-9     1.8        156.39E-6 -0.0082751 -0.019425  -0.13499    1.7999     1.8        1.7999     1.7998     1.8        1.8        1.8        1.8        1.8        1.8        1.8        1.8        1.8        1.7998     1.8        1.8        1.8        1.7999     1.8        1.7999     1.7999     1.7999     1.8        1.8        1.8        1.7999     1.8        1.7999     1.8       
 1.6E-9     1.8        156.71E-6 -0.0044086 -0.010294  -0.066088   0.28258    1.8        1.7999     1.7999     1.8        1.8        1.8        1.8        1.8        1.8        1.8        1.8        1.8        1.7999     1.8        1.8        1.8        1.7999     1.8        1.7999     1.7999     1.7999     1.8        1.8        1.8        1.7999     1.8        1.8        1.8       
 1.8E-9     1.8        157.98E-6 -0.002357  -0.0054936 -0.033867   0.10624    1.8        1.7999     1.7999     1.8        1.8        1.8        1.8        1.8        1.8        1.8        1.8        1.8        1.7999     1.8        1.8        1.8        1.7999     1.8        1.7999     1.7999     1.7999     1.8        1.8        1.8        1.7999     1.8        1.7999     1.8       
 2.E-9      1.8        160.91E-6 -0.0012787 -0.0029514 -0.017719   0.051682   1.8004     1.7999     1.7999     1.8        1.8        1.8        1.8        1.8        1.8        1.8        1.8        1.8        1.7999     1.8        1.8        1.8        1.7999     1.8        1.7999     1.7999     1.7999     1.8        1.8        1.8        1.7999     1.8        1.7999     1.8       
 2.2E-9     1.8        156.5E-6  -794.2E-6  -0.0016076 -0.009357   0.026553   1.8017     1.7053     1.8        1.8        1.7999     1.8        1.8        1.8        1.8        1.8        1.8        1.8        1.7999     1.8        1.8        1.8        1.7999     1.8        1.7999     1.7999     1.7999     1.8        1.8        1.8        1.8        1.8        1.8        1.8       
 2.4E-9     1.8        155.94E-6 -517.86E-6 -951.63E-6 -0.0049603  0.013935   0.90494   -0.14711    1.8024     1.7998     1.57       1.8        1.8        1.8        1.8        1.8        1.8        1.8        1.7999     1.8        1.8        1.8        1.7999     1.8        1.7999     1.7999     1.7999     1.8        1.8        1.8        1.7999     1.8        1.8        1.8       
 2.6E-9     1.8        158.53E-6 -338.33E-6 -603.18E-6 -0.0026317  0.0073825  0.01172   -0.071705   1.043      1.6054    -0.1251     1.8078     1.8        1.8        1.8        1.8        1.8        1.8        1.7999     1.8        1.8        1.8        1.7999     1.8        1.7999     1.7999     1.7999     1.8        1.8        1.8        1.7999     1.8        1.7999     1.8       
 2.8E-9     1.8        154.62E-6 -219.41E-6 -388.37E-6 -0.0014077  0.0039295  78.904E-6 -0.036685  -0.025855   0.2149    -0.061585   0.81668    1.8033     1.8        1.8        1.8        1.8        1.8        1.7999     1.8        1.8        1.8        1.8        1.8        1.8        1.8        1.7999     1.8        1.8        1.8        1.7999     1.8        1.8        1.8       
 3.E-9      1.8        157.32E-6 -138.92E-6 -248.35E-6 -834.88E-6  0.0021059 -934.08E-9 -0.019191  -0.012648   557.71E-6 -0.031651   0.0064183  0.97361    1.7998     1.6696     1.8        1.8        1.8        1.8        1.8        1.8        1.8        1.7999     1.6696     1.7999     1.7999     1.7999     1.8        1.8        1.8        1.7999     1.8        1.8        1.8       
 3.2E-9     1.8        154.22E-6 -83.204E-6 -155.08E-6 -547.41E-6  0.001143  -4.0303E-6 -0.01014   -0.0065294 -54.107E-6 -0.01659    197.32E-6  0.064555   1.5926     0.38449    1.8015     1.8        1.8        1.7998     1.8        1.8        1.8        1.7999     0.38449    1.7999     1.7999     1.8        1.8        1.8        1.8        1.8        1.8        1.7999     1.8       
 3.4E-9     1.8        156.64E-6 -43.68E-6  -91.513E-6 -375.31E-6  730.9E-6  -5.3939E-6 -0.0053798 -0.0034277  34.856E-6 -0.0087747  47.174E-6  260.51E-6  0.29492   -0.0018057  0.98651    1.7326     1.8        1.8        1.8        1.8        1.8        1.8       -0.0018057  1.8        1.8        1.7999     1.8        1.8        1.8        1.7999     1.8        1.8        1.8       
 3.6E-9     1.8        342.79E-6 -14.934E-6 -47.078E-6 -267.58E-6  487.25E-6  659.23E-9 -0.0028592 -0.0018089  15.911E-6 -0.0046607 -11.176E-6  41.723E-6 -0.0011769 -15.239E-6  0.095526   0.48866    1.8062     1.8013     1.8        1.8        1.8        1.7999    -15.239E-6  1.7999     1.7999     1.7999     1.8        1.8        1.8        1.8        1.8        1.8        1.8       
 3.8E-9     1.8        1.5023     6.524E-6  -15.186E-6 -199.52E-6  333.4E-6  -531.06E-9 -0.0015283 -947.81E-6  11.809E-6 -0.0024802 -3.9751E-6 -9.2404E-6 -61.957E-6  5.975E-6   899.31E-6 -0.0032745  0.39877    1.6519     1.8037     1.8006     1.8        1.7999     5.975E-6   1.7999     1.8        1.8        1.8        1.8        1.8        1.7999     1.8        1.7999     1.8       
 4.E-9      1.8        1.7216     22.946E-6  8.5257E-6 -156.01E-6  235.14E-6 -1.2667E-6 -846.07E-6 -538.49E-6  8.9902E-6 -0.0013329 -6.5752E-6 -6.2766E-6  35.212E-6  4.4283E-6  42.983E-6  51.809E-6  0.032315  -0.12798    1.0668     1.549      1.7998     1.802      4.4283E-6  1.8        1.7999     1.8002     1.8        1.8        1.8        1.8        1.8        1.8        1.8       
 4.2E-9     1.8        1.7744     35.808E-6  26.621E-6 -127.92E-6  171.5E-6  -1.6988E-6 -556.23E-6 -378.4E-6   6.3791E-6 -790.32E-6 -8.2037E-6 -4.1204E-6  9.932E-6   2.1753E-6 -1.5872E-6  17.264E-6  0.0052137 -0.065286   0.048916   0.34858    1.6648     0.49482    2.1753E-6  1.7999     1.8        1.8114     1.806      1.8        1.8        1.7999     1.8        1.8        1.8       
 4.4E-9     1.8        1.7909     46.115E-6  41.015E-6 -109.44E-6  129.58E-6 -1.978E-6  -383.73E-6 -277.99E-6  3.9515E-6 -519.17E-6 -8.8314E-6 -2.76E-6    6.0277E-6  171.65E-9  5.3493E-6 -14.418E-6  914.44E-6 -0.034756   168.67E-6  0.0019821  0.64619    0.083779   171.65E-9  1.8        1.8       -0.060843   0.73705    1.8        1.8        1.8002     1.8        1.8        1.8       
 4.6E-9     1.8        1.7964     54.519E-6  52.43E-6  -97.072E-6  101.44E-6 -2.175E-6  -278.5E-6  -216.5E-6   1.7823E-6 -349.32E-6 -8.9518E-6 -1.8986E-6  4.5245E-6 -1.4895E-6  2.3354E-6 -13.464E-6  138.E-6   -0.018854   42.382E-6 -33.878E-6  0.040423   0.041574  -1.4895E-6  1.8014     1.7997    -0.031313  -0.010779   1.8        1.8        1.4685     1.7999     1.8        1.8       
 4.8E-9     1.8        1.7985     61.489E-6  61.899E-6 -88.687E-6  82.109E-6 -2.3213E-6 -214.11E-6 -178.87E-6 -71.175E-9 -241.43E-6 -8.7524E-6 -1.3665E-6  2.9104E-6 -2.8726E-6  467.53E-9 -11.944E-6  2.8317E-6 -0.010313  -12.909E-6  27.512E-6  499.26E-6  0.021726  -2.8726E-6  1.6989     0.8029    -0.016535  -9.2028E-6  1.8005     1.8       -0.10466    1.7251     1.7999     1.8       
 5.E-9      1.8        1.7993     67.366E-6  70.133E-6 -83.018E-6  68.505E-6 -2.4375E-6 -175.E-6   -155.83E-6 -1.4893E-6 -172.01E-6 -8.5496E-6 -1.0187E-6  1.2477E-6 -3.976E-6  -481.25E-9 -10.985E-6 -22.56E-6  -0.00566   -9.4785E-6  9.4748E-6  11.764E-6  0.011579  -3.976E-6  -0.12829    0.019246  -0.008825   75.959E-6  1.6785     1.7998    -0.053984   0.18547    1.8002     1.8       
 5.2E-9     1.8        1.7998     72.39E-6   77.095E-6 -79.038E-6  58.674E-6 -2.5283E-6 -151.17E-6 -141.77E-6 -2.7262E-6 -126.63E-6 -8.0897E-6 -796.81E-9 -297.12E-9 -4.8691E-6 -838.42E-9 -10.419E-6 -30.202E-6 -0.0031062 -10.356E-6  3.4712E-6  13.043E-6  0.0062297 -4.8691E-6 -0.065644   0.0053192 -0.0047301 -16.502E-6  0.31745    1.5856    -0.028886   0.0097834  1.6106     1.7998    
 5.4E-9     1.8        1.8        76.746E-6  83.127E-6 -76.317E-6  51.391E-6 -2.6107E-6 -136.98E-6 -133.25E-6 -3.6995E-6 -96.439E-6 -7.8613E-6 -675.63E-9 -1.6522E-6 -5.5724E-6 -898.05E-9 -10.1E-6   -32.898E-6 -0.0017137 -10.773E-6 -415.05E-9  11.658E-6  0.0033729 -5.5724E-6 -0.034978   0.0015872 -0.0025416 -18.748E-6  0.0013143  0.060177  -0.015713   807.77E-6 -0.081702   1.4944    
 5.6E-9     1.8        1.8        80.577E-6  88.697E-6 -74.37E-6   45.859E-6 -2.6751E-6 -128.66E-6 -128.19E-6 -4.4313E-6 -75.955E-6 -7.6535E-6 -539.88E-9 -2.7847E-6 -6.1499E-6 -816.9E-9  -9.9152E-6 -33.775E-6 -982.36E-6 -10.703E-6 -3.1313E-6  9.3682E-6  0.0018422 -6.1499E-6 -0.018974   540.54E-6 -0.001371  -19.082E-6  111.07E-6  0.0028452 -0.0086077  89.519E-6 -0.018022  -0.03528   
 5.8E-9     1.8        1.8001     83.988E-6  93.683E-6 -72.978E-6  41.58E-6  -2.7369E-6 -124.13E-6 -125.3E-6  -5.1206E-6 -61.719E-6 -7.415E-6  -545.99E-9 -3.6738E-6 -6.6034E-6 -719.14E-9 -9.8026E-6 -33.886E-6 -661.85E-6 -10.38E-6  -5.0537E-6  7.2193E-6  0.0010737 -6.6034E-6 -0.010372   216.03E-6 -765.39E-6 -19.031E-6  22.751E-6  88.088E-6 -0.0047262  7.9003E-6 -0.0042555 -0.0041911 
 6.E-9      1.8        1.8001     87.062E-6  98.101E-6 -72.011E-6  38.222E-6 -2.7945E-6 -121.67E-6 -123.79E-6 -5.6249E-6 -51.607E-6 -7.3309E-6 -525.83E-9 -4.3795E-6 -6.977E-6  -658.58E-9 -9.7429E-6 -33.702E-6 -472.63E-6 -9.9612E-6 -6.4181E-6  5.3657E-6  684.17E-6 -6.977E-6  -0.0056946  86.148E-6 -511.32E-6 -18.704E-6 -13.244E-6  27.007E-6 -0.0025939 -4.3618E-6 -0.0010266 -622.76E-6 
 6.2E-9     1.8        1.7999    -98.736E-6 -112.06E-6  80.337E-6 -41.063E-6  10.119E-6  135.63E-6  138.21E-6  13.112E-6  53.445E-6  17.741E-6  9.128E-6   11.168E-6  15.729E-6  11.168E-6  20.126E-6  46.442E-6  455.96E-6  20.661E-6  12.735E-6 -605.45E-9 -624.34E-6  15.729E-6  0.0049145 -67.743E-6  482.22E-6  30.504E-6  26.224E-6 -29.223E-6  0.0022371  16.184E-6  743.09E-6  402.38E-6 
 6.4E-9     1.8        1.8001     98.414E-6  111.8E-6  -79.194E-6  39.895E-6 -5.8269E-6 -133.77E-6 -136.38E-6 -9.4179E-6 -50.916E-6 -11.614E-6 -3.3683E-6 -7.4938E-6 -10.92E-6  -3.6752E-6 -14.348E-6 -42.144E-6 -422.06E-6 -13.801E-6 -9.2459E-6  3.055E-6   558.71E-6 -10.92E-6  -0.0042312  52.738E-6 -439.98E-6 -24.46E-6  -20.559E-6  22.023E-6 -0.0019294 -15.894E-6 -551.28E-6 -262.23E-6 
 6.6E-9     1.8        1.7999    -99.686E-6 -113.E-6    79.024E-6 -39.14E-6   4.7622E-6  133.74E-6  136.36E-6  8.4453E-6  48.977E-6  10.351E-6  2.443E-6   6.6713E-6  9.8713E-6  2.7773E-6  12.974E-6  40.798E-6  393.31E-6  12.412E-6  8.7694E-6 -3.1474E-6 -499.87E-6  9.8713E-6  0.003651  -41.086E-6  403.78E-6  22.723E-6  19.187E-6 -18.483E-6  0.0016662  17.84E-6   410.95E-6  145.15E-6 
 6.8E-9     1.8        1.8001     100.69E-6  113.99E-6 -78.694E-6  38.376E-6 -4.1248E-6 -133.44E-6 -136.03E-6 -7.857E-6  -47.078E-6 -9.4668E-6 -1.8941E-6 -6.2384E-6 -9.2109E-6 -2.1511E-6 -12.053E-6 -39.532E-6 -367.42E-6 -11.47E-6  -8.5816E-6  2.9903E-6  447.08E-6 -9.2109E-6 -0.0031448  31.459E-6 -371.72E-6 -21.379E-6 -18.002E-6  15.295E-6 -0.0014386 -19.313E-6 -306.8E-6  -80.826E-6 
 7.E-9      1.8        1.7999    -101.59E-6 -114.88E-6  78.443E-6 -37.595E-6  3.8667E-6  133.31E-6  135.84E-6  7.6334E-6  45.363E-6  9.0878E-6  1.7193E-6  6.1383E-6  8.9763E-6  1.9749E-6  11.639E-6  38.696E-6  344.56E-6  11.052E-6  8.6465E-6 -2.6746E-6 -399.42E-6  8.9763E-6  0.002713  -23.465E-6  343.67E-6  20.597E-6  17.408E-6 -12.68E-6   0.001259   20.765E-6  229.62E-6  31.944E-6 
 7.2E-9     1.8        1.8001     102.5E-6   115.82E-6 -78.133E-6  36.886E-6 -3.696E-6  -133.08E-6 -135.55E-6 -7.4936E-6 -43.718E-6 -8.8155E-6 -1.5771E-6 -6.106E-6  -8.8384E-6 -1.8306E-6 -11.36E-6  -38.01E-6  -324.04E-6 -10.741E-6 -8.7259E-6  2.3839E-6  356.54E-6 -8.8384E-6 -0.0023387  16.797E-6 -318.88E-6 -20.008E-6 -16.895E-6  10.445E-6 -0.0011002 -22.005E-6 -172.53E-6 -5.6383E-6 
 7.4E-9     1.8        1.7999    -103.26E-6 -116.61E-6  77.904E-6 -36.164E-6  3.6345E-6  132.95E-6  135.37E-6  7.4631E-6  42.222E-6  8.6976E-6  1.5433E-6  6.1628E-6  8.8072E-6  1.7719E-6  11.22E-6   37.523E-6  305.9E-6   10.549E-6  8.8792E-6 -2.0585E-6 -317.73E-6  8.8072E-6  0.0020194 -11.097E-6  297.19E-6  19.604E-6  16.607E-6 -8.4185E-6  961.17E-6  23.135E-6  130.56E-6 -8.3408E-6 
 7.6E-9     1.8        1.8001     104.04E-6  117.45E-6 -77.646E-6  35.521E-6 -3.5581E-6 -132.76E-6 -135.11E-6 -7.4392E-6 -40.784E-6 -8.5592E-6 -1.4626E-6 -6.1952E-6 -8.7613E-6 -1.6764E-6 -11.082E-6 -37.093E-6 -289.58E-6 -10.347E-6 -8.9801E-6  1.7907E-6  282.7E-6  -8.7613E-6 -0.0017434  6.2355E-6 -277.99E-6 -19.236E-6 -16.32E-6   6.623E-6  -838.74E-6 -24.062E-6 -99.776E-6  15.621E-6 
 7.8E-9     940.7E-12  1.8004     184.46E-6  228.68E-6 -138.81E-6  45.738E-6 -48.327E-6 -231.65E-6 -237.3E-6  -57.294E-6 -43.814E-6 -61.934E-6 -45.91E-6  -51.774E-6 -59.875E-6 -50.655E-6 -69.543E-6 -117.37E-6 -252.23E-6 -60.937E-6 -50.962E-6 -40.671E-6 -146.4E-6  -59.875E-6 -123.65E-6 -115.43E-6 -232.1E-6  -79.1E-6   -78.352E-6 -77.926E-6 -244.24E-6 -111.17E-6 -117.69E-6 -71.076E-6 
 8.E-9     -3.4882E-9  1.8       -0.0029276  1.2222E-6  32.089E-6 -12.454E-6 -13.928E-6  52.471E-6  50.103E-6 -12.106E-6  7.478E-6  -9.0936E-6 -16.308E-6 -11.447E-6 -13.289E-6 -24.296E-6 -16.905E-6 -3.3463E-6  50.88E-6  -5.9901E-6 -9.586E-6  -13.656E-6  48.627E-6 -13.289E-6  36.556E-6  2.349E-6   49.075E-6 -4.6273E-6 -15.223E-6 -10.493E-6  55.252E-6 -6.9745E-6 -1.1228E-6 -9.0094E-6 
 8.2E-9     441.9E-12  1.8001     1.2473    -0.0022337 -125.38E-6  43.59E-6  -12.241E-6 -129.83E-6 -126.83E-6 -17.841E-6 -29.673E-6 -12.794E-6 -2.4936E-6 -15.214E-6 -8.2139E-6  2.8258E-6 -10.016E-6  18.717E-6 -123.19E-6  22.113E-6 -18.145E-6 -13.501E-6 -118.86E-6 -8.2139E-6 -159.84E-6 -69.733E-6 -120.06E-6 -26.396E-6 -12.512E-6 -16.345E-6 -134.24E-6 -13.656E-6 -40.863E-6 -33.083E-6 
 8.4E-9    -5.4947E-9  1.7999     1.8078     0.87554    132.9E-6  -47.301E-6  8.5279E-6  93.565E-6  162.99E-6  14.681E-6  30.508E-6  14.863E-6  7.9091E-6  11.123E-6  13.952E-6  4.4244E-6  16.717E-6  41.522E-6  156.23E-6  9.6715E-6  12.259E-6  6.3078E-6  153.E-6    13.952E-6  174.5E-6   73.13E-6   154.88E-6  22.352E-6  19.362E-6  23.989E-6  96.513E-6  26.701E-6  54.331E-6  32.924E-6 
 8.6E-9    -3.9698E-9  1.8        1.8021     1.7667     136.98E-6 -50.389E-6  8.086E-6   133.3E-6   127.3E-6   15.018E-6  31.88E-6   9.1307E-6  6.5807E-6  10.57E-6   14.045E-6  5.1434E-6 -16.762E-6  50.565E-6  174.63E-6  8.9897E-6  10.763E-6  4.3281E-6  171.7E-6   14.045E-6  186.83E-6  78.88E-6   173.87E-6  18.668E-6 -15.831E-6  26.931E-6  134.68E-6  32.853E-6  61.208E-6 -6.0312E-6 
 8.8E-9    -6.1412E-9  1.7999     1.8008     1.7937     172.61E-6 -50.162E-6  7.7969E-6  148.87E-6  145.83E-6  14.196E-6  30.768E-6  10.086E-6  6.9854E-6  10.271E-6  14.294E-6  2.6653E-6  9.6362E-6  44.648E-6  178.77E-6  10.159E-6  11.03E-6   7.4105E-6  176.37E-6  14.294E-6  185.72E-6  75.295E-6  134.05E-6  19.094E-6  14.764E-6  25.92E-6   149.44E-6  27.966E-6  59.336E-6  23.421E-6 
 9.E-9     -4.9592E-9  1.7999     1.8003     1.799     -0.0018083 -49.403E-6  7.2984E-6  160.17E-6  155.32E-6  13.499E-6  29.826E-6  8.6587E-6  5.3242E-6  9.6958E-6  13.812E-6  2.5262E-6  11.971E-6  45.044E-6  181.55E-6  10.325E-6  10.472E-6  3.7006E-6  179.22E-6  13.812E-6  183.9E-6   72.773E-6  142.66E-6  19.547E-6  17.044E-6  25.374E-6  160.47E-6  27.932E-6  58.227E-6  27.324E-6 
 9.2E-9    -5.8725E-9  1.7999     1.8001     1.8        0.28627   -32.641E-6  5.675E-6   169.09E-6  162.76E-6  12.879E-6  29.06E-6   10.667E-6  5.3939E-6  9.2285E-6  13.468E-6  2.9206E-6  12.802E-6  40.229E-6  183.87E-6  11.937E-6  9.8817E-6  3.4894E-6  126.61E-6  13.468E-6  182.22E-6  71.072E-6  150.6E-6   20.09E-6   17.469E-6  25.141E-6  169.53E-6  25.548E-6  57.513E-6  28.169E-6 
 9.4E-9    -4.6997E-9  1.8        1.8        1.8002     1.917     -0.0017792  10.548E-6  133.37E-6  169.03E-6  12.572E-6  28.445E-6  7.2553E-6  5.4886E-6  8.8858E-6  13.292E-6  3.75E-6    13.438E-6  39.958E-6  185.99E-6  8.1532E-6  9.5246E-6  3.4175E-6  141.96E-6  13.292E-6  180.95E-6  69.932E-6  157.36E-6  20.202E-6  17.747E-6  24.977E-6  133.06E-6  26.544E-6  57.244E-6  28.386E-6 
 9.6E-9    -8.1832E-9  1.7999     1.8        1.8        1.8303     0.87153    35.821E-6  145.86E-6  174.53E-6  12.263E-6  27.979E-6  8.4752E-6  5.6554E-6  8.6338E-6  13.106E-6  1.1712E-6  13.666E-6  43.174E-6  133.E-6    8.9982E-6  9.2369E-6  3.5121E-6  150.33E-6  13.106E-6  180.1E-6   69.211E-6  163.27E-6  18.049E-6  18.022E-6  24.926E-6  144.92E-6  27.874E-6  57.174E-6  28.596E-6 
 9.8E-9    -5.8368E-9  1.7999     1.8        1.7999     1.8082     1.8037     6.8098E-6  157.72E-6  136.32E-6  12.148E-6  27.74E-6   9.0705E-6  7.1314E-6  8.4571E-6  13.174E-6  2.1737E-6  12.022E-6  39.433E-6  147.81E-6  10.953E-6  8.9812E-6  3.4685E-6  157.43E-6  13.174E-6  179.68E-6  68.809E-6  168.55E-6  18.638E-6  18.292E-6  25.03E-6   156.54E-6  27.361E-6  57.314E-6  28.836E-6 
