#Time       v(a0)      v(cout)    v(sum0)    v(sum1)    v(sum2)    v(sum3)    v(sum4)    v(sum5)    v(sum6)    v(sum7)    v(sum8)    v(sum9)    v(sum10)   v(sum11)   v(sum12)   v(sum13)   v(sum14)   v(sum15)   v(sum16)   v(sum17)   v(sum18)   v(sum19)   v(sum20)   v(sum12)   v(sum22)   v(sum23)   v(sum24)   v(sum25)   v(sum26)   v(sum27)   v(sum28)   v(sum29)   v(sum30)   v(sum31)  
 0.        -384.E-15   10.552E-9  1.8        1.8        1.8        1.8        1.8        1.8        1.8        1.8        1.8        1.8        1.8        1.8        1.8        1.8        1.8        1.8        1.8        1.8        1.8        1.8        1.8        1.8        1.8        1.8        1.8        1.8        1.8        1.8        1.8        1.8        1.8        1.8       
 200.E-12   1.8       -186.E-6    1.8        1.7999     1.8002     1.8001     1.8001     1.8        1.8001     1.8001     1.8001     1.8001     1.8001     1.8        1.8        1.8001     1.8001     1.8        1.8001     1.8001     1.8001     1.8002     1.8001     1.8        1.8001     1.8        1.8001     1.8001     1.8001     1.8        1.8001     1.8        1.8001     1.8       
 400.E-12   1.8        183.57E-6  1.7587     1.8001     1.7999     1.7999     1.8        1.8        1.7999     1.8        1.7999     1.8        1.8        1.8        1.8        1.8        1.8        1.8        1.7999     1.8        1.8        1.8        1.7999     1.8        1.7999     1.8        1.7999     1.8        1.8        1.8        1.7999     1.8        1.7999     1.8       
 600.E-12   1.8        148.22E-6 -0.0065316  1.8165     1.7999     1.7998     1.8        1.8        1.7999     1.8        1.7999     1.8        1.8        1.8        1.8        1.8        1.8        1.8        1.7999     1.8        1.8        1.8        1.7999     1.8        1.7999     1.7999     1.7999     1.8        1.8        1.8        1.7999     1.8        1.7999     1.8       
 800.E-12   1.8       -123.19E-6  128.22E-6 -0.0096663  1.8001     1.8001     1.8        1.8        1.8        1.8        1.8        1.8        1.8        1.8        1.8        1.8        1.8        1.8        1.8        1.8        1.8        1.8        1.8        1.8        1.8        1.8        1.8        1.8        1.8        1.8001     1.8        1.8001     1.8        1.8001    
 1.E-9      1.8        149.98E-6 -57.799E-6  0.0021503  1.7998     1.8        1.8        1.7999     1.8        1.8        1.8        1.8        1.8        1.8        1.8        1.8        1.8        1.8        1.8        1.8        1.8        1.8        1.8        1.8        1.8        1.7999     1.8        1.8        1.8        1.8        1.8        1.8        1.8        1.8       
 1.2E-9     1.8        157.19E-6 -39.459E-6  0.0011431  1.8065     1.7999     1.8        1.7999     1.7999     1.8        1.7999     1.8        1.8        1.8        1.8        1.8        1.8        1.8        1.8        1.8        1.8        1.8        1.8        1.8        1.7999     1.8        1.7999     1.8        1.8        1.8        1.8        1.8        1.8        1.8       
 1.4E-9     1.8        159.2E-6  -23.502E-6  701.05E-6  0.12801    1.7999     1.8        1.7999     1.8        1.8        1.8        1.8        1.8        1.8        1.8        1.8        1.8        1.8        1.7999     1.8        1.8        1.8        1.7999     1.8        1.8        1.7999     1.8        1.8        1.8        1.8        1.7999     1.8        1.8        1.8       
 1.6E-9     1.8        155.16E-6 -11.219E-6  475.07E-6  0.058256   1.6682     1.8        1.7999     1.7999     1.8        1.8        1.8        1.8        1.8        1.8        1.8        1.8        1.8        1.8        1.8        1.8        1.8        1.8        1.8        1.7999     1.8        1.7999     1.8        1.8        1.8        1.8        1.8        1.7999     1.8       
 1.8E-9     1.8        156.89E-6 -1.6659E-6  334.47E-6  0.029423  -0.14257    1.8        1.7999     1.7999     1.8        1.8        1.8        1.8        1.8        1.8        1.8        1.8        1.8        1.7999     1.8        1.8        1.8        1.7999     1.8        1.8        1.8        1.8        1.8        1.8        1.8        1.7999     1.8        1.8        1.8       
 2.E-9      1.8        153.75E-6  5.875E-6   245.77E-6  0.015343  -0.069824   1.8        1.7999     1.8        1.8        1.7999     1.8        1.8        1.8        1.8        1.8        1.8        1.8        1.8        1.8        1.8        1.8        1.8        1.8        1.7999     1.8        1.7999     1.8        1.8        1.8        1.8        1.8        1.8        1.8       
 2.2E-9     1.8        132.79E-6  11.921E-6  189.18E-6  0.0081114 -0.0358     1.801      1.7996     1.7999     1.8        1.7999     1.8        1.8        1.8        1.8        1.8        1.8        1.8        1.7999     1.8        1.8        1.8        1.7999     1.8        1.7999     1.8        1.7999     1.8        1.8        1.8        1.7999     1.8        1.8        1.8       
 2.4E-9     1.8        133.44E-6  16.857E-6  152.69E-6  0.0043208 -0.018747   1.6693     1.0037     1.8        1.8        1.8        1.8        1.8        1.8        1.8        1.8        1.8        1.8        1.8        1.8        1.8        1.8        1.8        1.8        1.8        1.8        1.8        1.8        1.8        1.8        1.8        1.8        1.8        1.8       
 2.6E-9     1.8        140.34E-6  20.861E-6  128.97E-6  0.002317  -0.0099094  0.44773   -0.018826   1.8026     1.7999     1.5607     1.8        1.8        1.8        1.8        1.8        1.8        1.8        1.7999     1.8        1.8        1.8        1.7999     1.8        1.7999     1.8        1.7999     1.8        1.8        1.8        1.7999     1.8        1.8        1.8       
 2.8E-9     1.8        143.84E-6  24.184E-6  113.34E-6  0.0012652 -0.0052573 -0.0016084 -0.010659   0.90589    1.6788    -0.12315    1.802      1.7999     1.8        1.8        1.8        1.8        1.8        1.7999     1.8        1.8        1.8        1.7999     1.8        1.8        1.8        1.8        1.8        1.8        1.8        1.8        1.8        1.8        1.8       
 3.E-9      1.8        143.64E-6  27.014E-6  102.99E-6  802.21E-6 -0.0027929  40.822E-6 -0.0057825  0.0011314  0.31056   -0.060611   1.1085     1.8031     1.8        1.8        1.8        1.8        1.8        1.8        1.8        1.8        1.8        1.8        1.8        1.8        1.8        1.8        1.8        1.8        1.8        1.7999     1.8        1.8        1.8       
 3.2E-9     1.8        124.33E-6  29.378E-6  96.019E-6  520.32E-6 -0.0014905 -6.8111E-6 -0.003102   0.0012326  124.63E-9 -0.031126   0.036952   1.2279     1.7999     1.7837     1.8        1.8        1.8        1.7999     1.8        1.8        1.8        1.7999     1.7837     1.8        1.8        1.8        1.8        1.8        1.8        1.8        1.8        1.8        1.8       
 3.4E-9     1.8        129.2E-6   31.429E-6  91.35E-6   336.48E-6 -821.98E-6 -6.157E-6  -0.0016645  747.7E-6  -11.786E-6 -0.016298   251.41E-6  0.1577     1.7609     0.68001    1.7998     1.7999     1.8        1.8        1.8        1.8        1.8        1.8        0.68001    1.8        1.8        1.8        1.8        1.8        1.8        1.7999     1.8        1.8        1.8       
 3.6E-9     1.8        131.56E-6  33.17E-6   88.184E-6  214.72E-6 -543.2E-6  -7.2136E-6 -987.15E-6  425.87E-6  19.826E-6 -0.0086059  48.763E-6  600.53E-6  0.62096   -0.0020797  1.5162     1.8021     1.8        1.7999     1.8        1.8        1.8        1.8       -0.0020797  1.8        1.8        1.8        1.8        1.8        1.8        1.8        1.8        1.8        1.8       
 3.8E-9     1.8       -143.25E-6 -31.846E-6 -74.287E-6 -60.986E-6  229.85E-6  6.5671E-6  356.11E-6 -119.24E-6 -10.021E-6  0.0016946  23.174E-6  14.453E-6  0.011943  -9.1453E-6  0.37585    1.1624     1.7997     1.8002     1.8        1.8        1.8        1.8001    -9.1453E-6  1.8001     1.8001     1.8001     1.8001     1.8001     1.8001     1.8        1.8001     1.8        1.8       
 4.E-9      1.8        0.050021  -37.004E-6 -87.43E-6  -21.866E-6  205.62E-6  5.8174E-6  270.38E-6 -48.311E-6 -2.8764E-6  900.87E-6  11.454E-6  10.307E-6  11.146E-6  4.776E-6   0.0074817  0.024924   1.6053     1.8053     1.7999     1.7999     1.8        1.8        4.776E-6   1.8        1.8        1.8        1.8        1.8        1.8        1.8        1.8        1.8        1.8       
 4.2E-9     1.8        1.9624    -39.427E-6 -87.035E-6  4.5854E-6  178.32E-6  6.1292E-6  201.47E-6 -12.255E-6  22.322E-9  555.05E-6  10.787E-6  11.144E-6 -13.738E-9  7.3981E-6  39.576E-6  115.12E-6 -0.030379   0.29742    1.7398     1.8027     1.8        1.7998     7.3981E-6  1.8001     1.8        1.7999     1.8        1.8        1.8        1.8        1.8        1.8        1.8       
 4.4E-9     1.8        1.8479    -41.207E-6 -86.583E-6  24.813E-6  162.62E-6  6.2874E-6  156.83E-6  13.496E-6  2.7383E-6  380.03E-6  10.549E-6  10.657E-6  1.7649E-6  7.9696E-6  995.08E-9 -7.6809E-6 -0.0050256  0.096463   0.61097    1.262      1.7998     1.8069     7.9696E-6  1.8        1.8        1.8011     1.8        1.8        1.8        1.8        1.8        1.8        1.8       
 4.6E-9     1.8        1.7966     39.964E-6  80.169E-6 -48.821E-6 -138.26E-6 -5.4132E-6 -99.753E-6 -48.791E-6 -5.4056E-6 -195.17E-6 -8.51E-6   -8.0543E-6 -3.6098E-6 -6.5844E-6  276.2E-9  -13.826E-6  91.605E-6 -0.02188    0.011663   0.14825    1.6221     793.09E-6 -6.5844E-6  1.7999     1.7999     1.6493     1.8102     1.8        1.8        1.7999     1.8001     1.8        1.8       
 4.8E-9     1.8        1.8003    -41.491E-6 -82.128E-6  67.754E-6  139.21E-6  6.2914E-6  80.891E-6  78.616E-6  8.5523E-6  144.65E-6  9.4146E-6  8.8082E-6  6.2416E-6  8.382E-6   2.5511E-6  14.667E-6  26.585E-6  0.0055772  84.759E-6  0.0020994  0.53542    997.12E-6  8.382E-6   1.8        1.8        0.044897   0.48424    1.8        1.8        1.8003     1.8        1.8        1.8       
 5.E-9      1.8        1.8001     43.64E-6   84.211E-6 -81.101E-6 -144.08E-6 -6.4697E-6 -74.262E-6 -100.38E-6 -10.426E-6 -133.98E-6 -9.6904E-6 -8.6714E-6 -7.6228E-6 -9.2718E-6 -5.0291E-6 -14.906E-6 -32.129E-6 -0.0014172  1.2326E-6  47.488E-6  0.030193  -325.5E-6  -9.2718E-6  1.8017     1.7997    -0.010552   208.04E-6  1.8        1.8        1.4506     1.8        1.8        1.8       
 5.2E-9    -13.346E-9  1.8001     47.769E-6  92.859E-6 -94.527E-6 -160.01E-6 -7.2753E-6 -79.331E-6 -119.57E-6 -12.694E-6 -146.33E-6 -10.872E-6 -8.8641E-6 -9.1589E-6 -10.921E-6 -6.0203E-6 -16.361E-6 -38.066E-6 -793.7E-6  -4.4102E-6  5.6908E-6  387.91E-6 -261.11E-6 -10.921E-6  1.5933     0.97169   -0.0056503  16.123E-6  1.8005     1.8       -0.082964   1.7921     1.7999     1.8       
 5.4E-9    -3.0963E-9  1.8001    -784.61E-6 -176.41E-6  152.96E-6  183.11E-6  3.2554E-6  116.21E-6  150.8E-6   4.634E-6   157.79E-6  1.2649E-6 -35.972E-6  1.5355E-6  7.1224E-6  3.7094E-6 -38.443E-6 -32.861E-6  173.14E-6  7.7454E-6  2.3957E-6  25.229E-6  153.75E-6  7.1224E-6  187.24E-6  34.662E-6  161.49E-6  14.435E-6  1.7542     1.7999     14.722E-6  0.13905    1.7999     1.8       
 5.6E-9    -15.012E-9  1.8001     1.5666    -0.0015695 -177.59E-6 -164.81E-6 -9.1936E-6 -119.45E-6 -36.881E-6 -18.705E-6 -161.32E-6 -15.275E-6 -12.086E-6 -1.6368E-6 -5.6082E-6 -4.8098E-6 -12.752E-6 -33.615E-6 -175.16E-6 -13.18E-6  -4.9126E-6 -8.4656E-6 -109.1E-6  -5.6082E-6  2.8777E-6 -44.738E-6 -146.46E-6 -12.068E-6  0.24236    1.811     -86.495E-6  138.19E-6  1.8104     1.8       
 5.8E-9    -10.397E-9  1.8001     1.7995     1.5454    -123.9E-6  -126.11E-6 -9.1542E-6 -117.45E-6 -105.67E-6 -5.215E-6  -132.75E-6 -77.999E-9 -1.5704E-6 -6.6107E-6 -8.1E-6     8.9599E-6 -8.9545E-6 -34.756E-6 -146.44E-6  4.3316E-6  9.6315E-6  8.7151E-6 -115.57E-6 -8.1E-6    -43.022E-6 -64.431E-6 -133.69E-6 -8.6723E-6  593.46E-6  0.23554   -126.63E-6 -4.7541E-6 -0.01586    1.813     
 6.E-9      4.6161E-9  1.7999     1.8        1.8095     132.41E-6  156.4E-6   12.07E-6   125.2E-6   149.04E-6  7.3859E-6  165.79E-6  11.079E-6  2.4372E-6  9.7679E-6  7.9067E-6  9.4306E-6  10.835E-6  39.45E-6   180.02E-6  11.833E-6  6.8301E-6  10.857E-6  149.85E-6  7.9067E-6  76.819E-6  73.905E-6  158.18E-6  18.165E-6  8.6406E-6 -24.561E-6  146.E-6    13.94E-6   595.16E-6  0.17887   
 6.2E-9     4.9845E-9  1.7999     1.8        1.8031    -0.0011544  170.47E-6  12.137E-6  129.09E-6  173.26E-6  12.333E-6  176.82E-6  7.5466E-6  5.2727E-6  6.1345E-6  7.5912E-6  3.6395E-6  14.434E-6  45.597E-6  195.43E-6 -18.245E-6  7.2408E-6  4.3838E-6  116.54E-6  7.5912E-6  81.713E-6  82.846E-6  124.19E-6  14.954E-6  3.5849E-6  8.4167E-6  161.59E-6  17.766E-6  191.7E-6   0.011283  
 6.4E-9     3.1744E-9  1.7999     1.8        1.801      0.95541    154.28E-6  8.1988E-6  126.28E-6  178.23E-6  10.156E-6  176.15E-6  5.9335E-6  2.1242E-6  4.5434E-6  6.2156E-6  5.8009E-6  11.823E-6  37.398E-6  194.56E-6  5.5816E-6  4.4495E-6  6.3384E-6  136.07E-6  6.2156E-6  80.657E-6  81.977E-6  141.45E-6  12.756E-6  4.4939E-6  17.677E-6  165.37E-6  18.471E-6  74.033E-6  996.61E-6 
 6.6E-9     4.7818E-9  1.8        1.8        1.8005     1.7809    -0.0060013  12.172E-6  121.6E-6   179.37E-6  11.011E-6  173.68E-6  7.6181E-6  4.1253E-6  6.684E-6   7.8877E-6  6.7752E-6  12.519E-6  38.981E-6  191.67E-6  8.6269E-6  5.729E-6   7.2689E-6  144.53E-6  7.8877E-6  78.771E-6  81.316E-6  151.22E-6  14.779E-6  6.1365E-6  20.325E-6  167.99E-6  19.33E-6   36.237E-6  93.162E-6 
 6.8E-9     1.8315E-9  1.8        1.8        1.8001     1.7982     1.6817     17.816E-6  117.13E-6  178.82E-6  6.6657E-6  175.09E-6  4.13E-6    2.5361E-6  4.5281E-6  4.2376E-6  3.8925E-6  8.2397E-6  40.244E-6  190.53E-6  11.382E-6  3.1924E-6  4.3728E-6  152.06E-6  4.2376E-6  76.365E-6  81.032E-6  105.97E-6  16.033E-6  7.5932E-6  22.097E-6  170.17E-6  20.115E-6  27.441E-6  18.026E-6 
 7.E-9      3.415E-9   1.7999     1.8        1.7999     1.8007     1.7655    -4.4549E-6  113.4E-6   140.42E-6  10.954E-6  167.76E-6  7.982E-6   1.2439E-6  4.8321E-6  8.3121E-6  4.9499E-6  10.808E-6  38.302E-6  186.9E-6   8.4506E-6  4.559E-6   5.2118E-6  156.18E-6  8.3121E-6  78.842E-6  81.036E-6  129.19E-6  13.521E-6  8.7524E-6  23.56E-6   172.19E-6  20.797E-6  27.284E-6  9.5141E-6 
 7.2E-9     827.1E-12  1.8        1.8        1.7999     1.8007     1.7885    -777.51E-6  386.63E-6  188.47E-6  6.8724E-6  186.32E-6  5.7846E-6  4.1448E-6  6.5207E-6  6.0042E-6  6.0815E-6  10.63E-6   36.885E-6  192.66E-6  11.264E-6  5.7717E-6  6.2834E-6  159.27E-6  6.0042E-6  83.998E-6  81.261E-6  145.04E-6  16.976E-6  9.6894E-6  24.779E-6  174.19E-6  21.39E-6   29.61E-6   12.438E-6 
 7.4E-9    -1.5027E-9  1.7999     1.8        1.7999     1.8004     1.7958    -0.0040714  0.35467    20.603E-6  11.262E-6  135.27E-6  4.2428E-6  2.1425E-6  3.1383E-6  4.4663E-6  2.9022E-6  11.902E-6  36.643E-6  186.09E-6  8.3528E-6  2.7373E-6  3.6823E-6  162.35E-6  4.4663E-6  90.338E-6  81.651E-6  105.35E-6  11.771E-6  10.335E-6  25.797E-6  176.24E-6  21.918E-6  32.351E-6  16.666E-6 
 7.6E-9    -1.4216E-9  1.8        1.8        1.7999     1.8001     1.7982     0.56146    1.9174    -802.76E-6  123.83E-6  0.038328  -3.1994E-6  907.11E-9  6.988E-6   4.1836E-6  4.6669E-6  7.9546E-6  38.612E-6  191.07E-6  9.45E-6    4.5534E-6  4.6483E-6  165.71E-6  4.1836E-6  97.026E-6  82.219E-6  125.56E-6  15.597E-6  10.855E-6  26.665E-6  178.39E-6  22.396E-6  34.861E-6  20.475E-6 
 7.8E-9    -1.3945E-9  1.7999     1.8        1.7998     1.8        1.7992     1.5045     1.8337    -0.005883   0.015844   1.9331    -0.0028099  62.531E-6  4.8018E-6  20.065E-6  2.488E-6   11.819E-6  37.425E-6  184.66E-6  10.305E-6  3.6549E-6  5.903E-6   160.79E-6  20.065E-6  103.61E-6  82.951E-6  139.13E-6  11.059E-6  11.364E-6  27.4E-6    180.68E-6  22.849E-6  36.994E-6  23.685E-6 
 8.E-9     -5.0208E-9  1.8        1.8        1.7999     1.7999     1.7996     1.7711     1.8103     1.2686     1.022      1.8337     0.56993   -0.0026669  3.4716E-6  66.582E-6  5.144E-6   9.3341E-6  38.292E-6  190.19E-6  7.4957E-6  2.0857E-6  4.4545E-6  168.37E-6  66.582E-6  109.86E-6  83.803E-6  154.96E-6  14.952E-6  11.772E-6  28.044E-6  183.1E-6   23.269E-6  38.771E-6  26.386E-6 
 8.2E-9    -2.4769E-9  1.8        1.7999     1.7999     1.7999     1.7999     1.7982     1.8035     1.7385     1.7182     1.8086     1.5154     0.32099    102.08E-6  0.014435  -5.8344E-6  4.3683E-6  33.264E-6  185.37E-6  8.7678E-6  5.1792E-6  2.7879E-6  167.18E-6  0.014435   115.69E-6  84.759E-6  161.98E-6  10.494E-6  12.103E-6  28.617E-6  185.66E-6  23.673E-6  40.252E-6  28.67E-6  
 8.4E-9    -4.4963E-9  1.8        1.7999     1.7998     1.7999     1.8001     1.7998     1.8013     1.7846     1.7969     1.8021     1.7722     1.2446    -0.0053077  0.91241   -0.0019162  88.512E-6  38.579E-6  203.61E-6  9.8402E-6  1.5413E-6  5.1557E-6  167.15E-6  0.91241    121.09E-6  87.801E-6  171.06E-6  14.821E-6  12.367E-6  29.126E-6  188.35E-6  24.066E-6  41.491E-6 -10.971E-6 
 8.6E-9    -5.576E-9   1.7999     1.7999     1.7999     1.8        1.8001     1.8        1.8005     1.7959     1.7998     1.8005     1.7981     1.6945     0.79958    1.661      0.40318   -0.0047538  33.996E-6  122.31E-6  7.1513E-6  4.711E-6   2.0253E-6  169.47E-6  1.661      126.07E-6  83.393E-6  120.51E-6  11.955E-6  12.587E-6  29.594E-6  146.9E-6   24.458E-6  42.545E-6  22.044E-6 
 8.8E-9    -4.4483E-9  1.8        1.7999     1.7999     1.8        1.8002     1.8        1.8001     1.7988     1.7999     1.8002     1.7997     1.7868     1.6068     1.7914     1.2526     0.61339    306.77E-6 -34.935E-6  7.4469E-6 -2.6526E-6  3.3377E-6  163.94E-6  1.7914     130.67E-6  82.233E-6  131.65E-6  10.281E-6  12.769E-6  30.025E-6  155.01E-6  24.855E-6  43.451E-6  28.648E-6 
 9.E-9     -7.2112E-9  1.3359     1.7999     1.7998     1.8        1.8001     1.8        1.7999     1.7995     1.8        1.8002     1.7999     1.7984     1.782      1.7994     1.6802     1.5722     0.18522   -0.0030688  212.18E-6  73.729E-6  4.3743E-6  185.99E-6  1.7994     134.95E-6  85.171E-6  183.58E-6  12.587E-6  12.923E-6  31.328E-6  163.43E-6  25.273E-6  44.24E-6   16.622E-6 
 9.2E-9    -5.0302E-9 -0.083309   1.7999     1.7999     1.8        1.8002     1.8        1.7999     1.7998     1.8        1.8001     1.8        1.7997     1.7986     1.7999     1.7811     1.7834     1.6742     0.85032    0.10287   -0.0033969 -1.8892E-6  43.915E-6  1.7999     138.94E-6  81.412E-6  36.342E-6  11.17E-6   13.089E-6  29.125E-6  171.22E-6  25.691E-6  44.948E-6  26.788E-6 
 9.4E-9    -4.3236E-9 -0.044428   1.7999     1.7998     1.8        1.8001     1.8        1.7999     1.7999     1.8        1.8001     1.8        1.7999     1.7998     1.7999     1.7971     1.7991     1.801      1.8119     1.0657     0.38545    122.14E-6 -0.0054967  1.7999     138.51E-6  81.173E-6 -0.0013357  31.707E-6  11.253E-6  29.414E-6  176.31E-6  26.114E-6  45.595E-6 -10.386E-6 
 9.6E-9    -6.9009E-9 -0.024068   1.7999     1.7999     1.8001     1.8001     1.8        1.7999     1.8        1.8        1.8002     1.8        1.8        1.7999     1.8        1.7995     1.7999     1.8005     1.8033     1.673      1.3048     0.15711    1.3271     1.8        164.84E-6  83.502E-6  0.028339  -0.008623   17.382E-6  30.975E-6  158.74E-6  26.526E-6  46.202E-6  20.98E-6  
 9.8E-9    -18.257E-9  0.0051889  1.8001     1.8002     1.7999     1.7999     1.8        1.8001     1.7999     1.8        1.7998     1.8        1.8        1.8        1.8        1.7999     1.8        1.7999     1.7999     1.7856     1.7119     0.9882     1.8075     1.8        3.4007E-6 -90.382E-6  1.8101     1.0203     13.024E-6 -28.276E-6 -0.0014021 -24.94E-6  -41.44E-6  -28.569E-6 
