#Time       v(a0)      v(sum0)    v(sum1)    v(sum2)    v(sum3)    v(sum4)    v(sum5)    v(sum6)    v(sum7)    v(sum8)    v(sum9)    v(sum10)   v(sum11)   v(sum12)   v(sum13)   v(sum14)   v(sum15)   v(cout)   
 0.        -134.E-15   1.8        1.8        1.8        1.8        1.8        1.8        1.8        1.8        1.8        1.8        1.8        1.8        1.8        1.8        1.8        1.8        10.552E-9 
 500.E-12   1.8        1.7998     1.8        1.8        1.8        1.8        1.8        1.8        1.8        1.8        1.8        1.8        1.8        1.8        1.8        1.8        1.8       -54.005E-9 
 1.E-9      1.8       -6.191E-6   784.57E-6  1.8007     1.8        1.8        1.8        1.8        1.8        1.8        1.8        1.8        1.8        1.8        1.8        1.8        1.8       -132.58E-9 
 1.5E-9     1.8       -9.8627E-6 -184.24E-6  0.0028398  1.2395     1.8        1.8        1.8        1.8        1.8        1.8        1.8        1.8        1.8        1.8        1.8        1.8        337.55E-9 
 2.E-9      1.8       -9.0906E-6 -105.05E-6  431.31E-6 -0.001985   0.20107    1.7998     1.8        1.8        1.8        1.8        1.8        1.8        1.8        1.8        1.8        1.8        651.32E-9 
 2.5E-9     1.8       -8.0291E-6 -92.499E-6  243.95E-6 -244.75E-6  0.0016688 -0.075356   1.8036     1.8        1.8        1.8        1.8        1.8        1.8        1.8        1.8        1.8        932.56E-9 
 3.E-9      1.8        5.3832E-6  67.81E-6  -108.57E-6  1.3921E-6 -19.07E-6   0.0018776 -0.0039817  1.5486     1.8        1.8        1.8        1.8        1.8        1.8        1.8        1.8       -1.2228E-6 
 3.5E-9     1.8       -2.4997E-6 -66.579E-6  63.397E-6 -11.053E-6 -9.0528E-6 -34.536E-6 -4.7374E-6 -1.7751E-6 -565.36E-6  1.7998     1.8        1.8        1.8        1.8        1.8        1.8        3.2743E-6 
 4.E-9      1.8       -4.0278E-6 -82.962E-6  77.207E-6 -12.523E-6 -9.1189E-6 -40.568E-6 -3.379E-6  -2.4351E-6 -26.977E-6  490.06E-6  1.804      1.8        1.8        1.8        1.8        1.8        5.0461E-6 
 4.5E-9     1.8       -7.6156E-6 -103.86E-6  86.068E-6 -13.967E-6 -8.9128E-6 -54.302E-6 -4.8091E-6 -2.4411E-6 -13.247E-6  1.7289E-6  6.933E-6   0.13494    1.8        1.8        1.8        1.8        7.3099E-6 
 5.E-9      1.8       -16.214E-6 -133.37E-6  112.6E-6  -14.842E-6 -12.766E-6 -44.906E-6 -5.1161E-6 -4.1135E-6 -14.759E-6  1.7057E-6 -6.6221E-6 -3.8983E-6  0.025132   1.8008     1.8        1.8        12.191E-6 
 5.5E-9     1.8       -39.326E-6 -131.43E-6  152.77E-6 -23.948E-6 -15.251E-6 -31.797E-6 -6.6423E-6 -8.7649E-6 -25.681E-6  1.7013E-6 -11.011E-6 -4.4101E-6 -1.1415E-6 -149.08E-6  0.70444    1.8        28.007E-6 
 6.E-9      1.8        47.032E-6  129.24E-6 -149.78E-6  25.448E-6  10.053E-6  30.368E-6  6.4547E-6  9.7754E-6  28.341E-6 -1.453E-6   11.447E-6  5.2459E-6  689.68E-9  2.1447E-6 -0.029524   1.7337     0.88669   
 6.5E-9     1.8       -57.827E-6 -80.175E-6  146.82E-6 -28.139E-6 -8.9175E-6 -32.028E-6 -6.3482E-6 -12.025E-6 -31.487E-6  1.6993E-6 -12.682E-6 -6.6685E-6 -219.43E-9 -74.898E-9  44.7E-6   -279.77E-6  1.8001    
 7.E-9      1.8       -73.706E-6 -104.6E-6   159.3E-6  -34.991E-6 -8.8123E-6 -41.227E-6 -7.2958E-6 -15.189E-6 -39.834E-6  2.5461E-6 -15.434E-6 -8.7296E-6 -431.54E-9  253.25E-9  6.9987E-6 -200.3E-6   1.8001    
 7.5E-9     1.8       -81.956E-6 -122.28E-6  167.29E-6 -40.527E-6 -9.894E-6  -44.E-6    -8.6316E-6 -18.643E-6 -44.708E-6  3.0551E-6 -18.194E-6 -10.247E-6 -1.1007E-6  443.1E-9  -2.8616E-6 -180.49E-6  1.8001    
 8.E-9      1.8       -83.977E-6 -126.92E-6  161.88E-6 -39.065E-6 -8.6428E-6 -39.284E-6 -7.7335E-6 -17.468E-6 -44.536E-6  2.8031E-6 -17.422E-6 -10.255E-6 -894.79E-9  537.64E-9 -9.7351E-6 -157.89E-6  1.8001    
 8.5E-9     1.8        88.737E-6  134.86E-6 -167.23E-6  43.528E-6  11.064E-6  42.414E-6  8.8762E-6  20.803E-6  47.76E-6  -3.3003E-6  19.772E-6  11.318E-6  1.4762E-6 -604.11E-9  13.396E-6  154.87E-6  1.7999    
 9.E-9      1.8       -88.892E-6 -128.22E-6  166.E-6   -42.582E-6 -9.8804E-6 -41.407E-6 -8.5153E-6 -19.91E-6  -47.423E-6  3.1688E-6 -19.235E-6 -11.154E-6 -1.3097E-6  639.35E-9 -14.828E-6 -149.61E-6  1.8001    
 9.5E-9     1.8        89.434E-6  122.6E-6  -164.81E-6  42.105E-6  9.3841E-6  40.647E-6  8.2792E-6  19.483E-6  47.364E-6 -3.0585E-6  18.988E-6  11.139E-6  1.2501E-6 -639.55E-9  16.435E-6  144.69E-6  1.7999    
 10.E-9     1.8       -89.838E-6 -123.69E-6  163.73E-6 -41.582E-6 -8.8025E-6 -39.811E-6 -8.0237E-6 -19.051E-6 -47.231E-6  2.999E-6  -18.706E-6 -11.073E-6 -1.1596E-6  683.84E-9 -17.923E-6 -139.88E-6  1.8001    
 10.5E-9    1.7875E-9 -107.66E-6 -67.799E-6  93.554E-6 -46.378E-6 -16.218E-6 -48.88E-6  -6.6869E-6 -20.8E-6   -71.031E-6  4.6056E-6 -27.327E-6 -19.016E-6 -2.6261E-6  2.6699E-6 -92.141E-6 -120.59E-9  1.8001    
 11.E-9    -4.5502E-9 -0.003327  -0.0014865 -96.743E-6  43.192E-6  8.949E-6   41.901E-6  5.479E-6   14.442E-6  77.776E-6 -4.7267E-6  28.528E-6  20.376E-6  2.4778E-6 -3.3436E-6  105.11E-6 -4.1624E-6  1.7998    
 11.5E-9    1.2979E-9  1.7977     1.8035    -621.23E-6 -42.083E-6 -5.295E-6  -44.11E-6  -4.6254E-6 -20.044E-6 -76.436E-6  4.8505E-6 -27.17E-6  -20.126E-6 -2.2264E-6  3.585E-6  -102.23E-6  6.2082E-6  1.8001    
 12.E-9    -3.487E-9   1.8        1.8        1.811     -622.74E-6  7.0814E-6  41.222E-6  4.1408E-6  13.071E-6  71.943E-6 -4.7981E-6  19.78E-6   21.046E-6  2.3128E-6 -3.6531E-6  107.07E-6 -7.2776E-6  1.8       
 12.5E-9    1.1325E-9  1.8        1.7999     1.8        1.8003    -326.09E-6 -53.066E-6 -4.4081E-6 -12.341E-6 -72.567E-6  5.8781E-6 -17.953E-6 -25.442E-6 -2.7478E-6  4.5394E-6 -101.94E-6  8.8775E-6  1.8001    
 13.E-9     468.5E-12  1.8        1.8        1.8001     1.8        1.7268     58.875E-6 -3.2899E-6 -14.314E-6 -66.753E-6  6.1037E-6 -14.084E-6 -27.155E-6 -3.0328E-6  4.7981E-6 -96.566E-6  9.5226E-6  1.8001    
 13.5E-9   -4.1145E-9  1.8001     1.8001     1.7999     1.8        1.8        1.8283     121.61E-6  18.314E-6  75.578E-6 -7.8784E-6  22.329E-6  34.611E-6  4.1051E-6 -6.2659E-6  100.01E-6 -11.388E-6  1.7999    
 14.E-9    -287.1E-12  1.7999     1.7999     1.8001     1.8        1.8        1.8001     1.7821     150.77E-6 -79.449E-6  12.093E-6 -26.616E-6 -39.324E-6 -7.7078E-6  8.2164E-6 -95.997E-6  13.42E-6   1.8       
 14.5E-9   -1.2009E-9  1.7999     1.7999     1.8001     1.8        1.8        1.8        1.8        1.4019     177.24E-6  9.2201E-6 -13.669E-6 -26.841E-6 -4.477E-6   7.7927E-6 -70.996E-6  14.532E-6  1.8       
 15.E-9     36.03E-12  1.7999     1.8        1.7999     1.8        1.8        1.8        1.8        1.7999     1.8168     120.87E-6 -11.62E-6  -27.26E-6  -5.1109E-6  9.6541E-6 -75.885E-6  16.891E-6  1.8       
 15.5E-9   -4.5889E-9  1.8001     1.8001     1.7999     1.8001     1.8        1.8        1.8        1.8        1.7999     1.2965     49.707E-6  22.578E-6  6.7109E-6 -11.028E-6  69.358E-6 -19.218E-6  1.7999    
 16.E-9    -5.2146E-9  1.8001     1.8001     1.8        1.8001     1.8        1.8001     1.8        1.8        1.8001     1.8        0.94492    131.66E-6  8.0916E-6 -12.396E-6  69.476E-6 -21.07E-6   1.8001    
 16.5E-9   -3.9996E-9  1.8002     1.8        1.8        1.8001     1.8        1.8        1.8        1.8        1.8001     1.8        1.8        1.5033     37.715E-6 -15.353E-6  84.818E-6 -26.614E-6  1.7999    
 17.E-9    -1.5867E-9  1.7998     1.7999     1.8001     1.7999     1.8        1.7999     1.8        1.8        1.7999     1.8        1.8        1.8001     0.82438    29.014E-6 -63.457E-6  25.944E-6  1.8001    
 17.5E-9   -4.1005E-9  1.8001     1.8        1.8        1.8        1.8        1.8001     1.8        1.8        1.8001     1.8        1.8        1.8        1.7995     0.7755     77.521E-6 -31.456E-6  1.7999    
 18.E-9    -3.4119E-9  1.8001     1.8001     1.7999     1.8001     1.8        1.8001     1.8        1.8        1.8001     1.8        1.8        1.8        1.8        1.8        1.368     -42.211E-6  1.7999    
 18.5E-9   -621.E-12   1.7999     1.8        1.8001     1.7999     1.8        1.7999     1.8        1.8        1.7999     1.8        1.8        1.8        1.8        1.8        1.8       -251.24E-6  1.83      
 19.E-9    -438.8E-12  1.7998     1.8001     1.8        1.8        1.7999     1.7999     1.8        1.8        1.7999     1.8        1.8        1.8        1.8        1.8        1.8        0.55338   -0.018501  
 19.5E-9   -1.381E-9   1.8001     1.8        1.8        1.8        1.8        1.8        1.8        1.8        1.8        1.8        1.8        1.8        1.8        1.8        1.8001     1.7924     0.0038284 
 20.E-9     931.8E-12  1.8        1.8        1.8        1.8        1.8        1.8        1.8        1.8        1.8        1.8        1.7999     1.7999     1.8        1.8        1.7999     1.8025    -0.0021997 
 20.5E-9    1.8        1.7996     1.7999     1.8        1.8        1.8001     1.8        1.8        1.8        1.7999     1.8        1.8        1.8        1.8        1.8        1.7999     1.8001    -361.24E-6 
 21.E-9     1.8       -59.206E-6  113.83E-6  1.8038     1.7999     1.8        1.8001     1.7999     1.8001     1.8001     1.8        1.8001     1.7999     1.8        1.8        1.7998     1.8        121.85E-6 
 21.5E-9    1.8        92.819E-6  85.637E-6 -135.15E-6  0.53232    1.8        1.8        1.8        1.8        1.8        1.8        1.8        1.8001     1.8001     1.7999     1.8        1.8       -175.81E-6 
 22.E-9     1.8        127.79E-6  133.01E-6 -92.229E-6  59.099E-6  0.026036   1.7995     1.8001     1.8        1.8        1.7999     1.8        1.7999     1.8        1.7999     1.8001     1.7999    -180.84E-6 
 22.5E-9    1.8        89.672E-6  89.008E-6 -73.647E-6  52.537E-6  28.28E-6   21.253E-6  1.5759     1.8        1.8        1.8        1.8        1.8        1.8        1.7999     1.8        1.7999    -148.18E-6 
 23.E-9     1.8       -108.49E-6 -41.581E-6  49.511E-6 -59.576E-6 -12.793E-6 -29.41E-6  -47.596E-6  0.26937    1.7998     1.8        1.8        1.7999     1.8        1.8        1.7998     1.8001     59.221E-6 
 23.5E-9    1.8        43.719E-6  83.998E-6 -106.39E-6 -7.8358E-6  26.066E-6  16.534E-6  38.704E-6  31.181E-6  75.841E-6  1.804      1.7999     1.7999     1.8001     1.8001     1.7999     1.8001    -46.243E-6 
 24.E-9     1.8       -50.418E-6 -45.535E-6  59.427E-6  966.64E-9 -2.8811E-6 -13.912E-6 -27.514E-6 -35.458E-6 -50.581E-6  31.233E-6  1.2038     1.8        1.8        1.7999     1.8        1.8001     54.652E-6 
 24.5E-9    1.8       -128.69E-6 -101.1E-6   56.329E-6 -7.2289E-6 -15.527E-6 -42.4E-6   -64.901E-6 -23.081E-6 -95.219E-6  22.586E-6 -48.968E-6  57.847E-6  1.8005     1.8        1.8        1.7999     51.598E-6 
 25.E-9     1.8        27.124E-6  14.513E-6 -18.2E-6    61.559E-6  15.402E-6  54.869E-6  58.07E-6   1.0487E-6 -36.04E-6   38.472E-6 -49.935E-6 -215.07E-9  113.97E-6  1.2668     1.8        1.8       -22.998E-6 
 25.5E-9    1.8       -77.511E-6 -69.675E-6  53.464E-6 -10.534E-6  8.0518E-6 -14.748E-6 -10.833E-6  5.4843E-6 -37.303E-6  34.534E-6 -43.373E-6 -67.657E-6 -19.346E-6 -0.0022692 -0.031725   1.7999     67.758E-6 
 26.E-9     1.8       -3.5509E-6 -103.12E-6  22.446E-6 -5.683E-6  -2.0886E-6 -11.016E-6 -7.1857E-6  1.6643E-6 -65.572E-6  31.598E-6 -8.2532E-6 -27.364E-6 -29.557E-6 -11.14E-6  -115.49E-6 -0.023136   1.7966    
 26.5E-9    1.8        72.804E-6  36.755E-6 -71.891E-6  9.4727E-6  2.6107E-6  29.262E-6  13.715E-6  1.4932E-6  29.97E-6  -29.648E-6  42.857E-6  62.444E-6  27.408E-6 -57.649E-6  105.56E-6  0.006143   1.8003    
 27.E-9     1.8       -66.937E-6 -58.03E-6   62.632E-6 -5.5505E-6  4.7368E-6 -16.265E-6 -19.008E-6  5.8838E-6 -42.521E-6  25.209E-6 -39.36E-6  -60.091E-6 -30.182E-6  43.38E-6  -135.71E-6 -0.0036291  1.7999    
 27.5E-9    1.8       -67.666E-6 -59.571E-6  63.165E-6 -6.8434E-6  3.2973E-6 -15.791E-6 -11.434E-6 -14.358E-6 -50.411E-6  32.53E-6  -35.213E-6 -68.369E-6 -32.847E-6  53.403E-6 -128.19E-6 -0.0028776  1.8       
 28.E-9     1.8       -64.752E-6 -55.267E-6  58.502E-6 -3.8531E-6 -5.0405E-6 -23.272E-6 -16.013E-6 -1.0044E-6 -41.678E-6  24.111E-6 -31.013E-6 -60.229E-6 -30.528E-6  56.097E-6 -137.7E-6  -0.0022852  1.8       
 28.5E-9    1.8       -60.752E-6 -51.98E-6   54.596E-6 -2.775E-6   2.3973E-6 -15.92E-6  -6.7714E-6 -13.554E-6 -34.407E-6  26.891E-6 -36.176E-6 -62.827E-6 -28.59E-6   57.904E-6 -121.63E-6 -0.001819   1.8001    
 29.E-9     1.8       -58.172E-6 -48.251E-6  50.775E-6 -13.271E-6  5.6958E-6 -10.938E-6 -22.122E-6 -410.01E-9 -39.184E-6  28.159E-6 -39.358E-6 -55.966E-6 -28.754E-6  58.321E-6 -131.58E-6 -0.0014746  1.8       
 29.5E-9    1.8       -56.133E-6 -47.111E-6  48.071E-6 -7.8819E-6  6.4143E-6 -8.4703E-6 -10.02E-6  -12.961E-6 -44.178E-6  22.214E-6 -29.438E-6 -59.388E-6 -28.574E-6  59.007E-6 -140.44E-6 -0.001212   1.8       
 30.E-9     1.8        61.143E-6  52.077E-6 -52.776E-6  12.487E-6  7.3477E-6  22.682E-6  22.009E-6  12.693E-6  46.372E-6 -31.535E-6  40.097E-6  69.221E-6  36.504E-6 -66.823E-6  152.14E-6  0.001167   1.7999    
 30.5E-9    624.3E-12  79.725E-6  36.9E-6   -53.386E-6 -5.1349E-6 -58.481E-6 -51.167E-6  9.3331E-6 -2.0888E-6  51.456E-6  9.623E-6  -57.828E-6  21.981E-6  17.082E-6 -57.504E-6  115.76E-6 -158.69E-6  1.8       
 31.E-9    -3.4843E-9 -0.0033667 -0.0015809  53.028E-6  2.5132E-6 -13.636E-6 -15.165E-6 -20.495E-6 -15.412E-6 -45.971E-6  23.172E-6 -2.5267E-6 -24.898E-6 -20.923E-6  56.634E-6 -120.39E-6  186.5E-6   1.7999    
 31.5E-9    284.2E-12  1.7979     1.802     -631.08E-6 -204.04E-9 -4.0495E-6  6.5135E-6  6.2506E-6 -4.5567E-6  32.406E-6  3.997E-6  -3.9226E-6  16.43E-6   24.242E-6 -60.077E-6  102.2E-6  -179.04E-6  1.8       
 32.E-9    -2.5547E-9  1.8        1.7999     1.8113    -577.43E-6  10.161E-6 -8.4954E-6 -5.5995E-6  8.1988E-6 -51.74E-6  -5.3488E-6  3.7843E-6 -15.209E-6 -16.764E-6  49.474E-6 -60.228E-6  157.51E-6  1.8       
 32.5E-9    198.E-12   1.8001     1.8        1.7999     1.8007    -284.11E-6  18.516E-6  26.084E-6  15.801E-6  36.997E-6 -18.22E-6   5.9972E-6  12.827E-6 -1.34E-6   -61.137E-6  51.97E-6  -174.78E-6  1.8       
 33.E-9    -3.3201E-9  1.7999     1.8001     1.8001     1.8        1.6932     32.68E-6  -4.9545E-6  6.6024E-6 -29.004E-6 -7.9721E-6 -1.7241E-6 -4.8956E-6  7.5207E-6  54.944E-6 -46.498E-6  154.2E-6   1.8       
 33.5E-9   -341.8E-12  1.8        1.7999     1.8001     1.8        1.8        1.8271     60.576E-6 -4.2792E-6  34.41E-6  -1.5597E-6  2.4091E-6  13.312E-6 -4.9066E-6 -70.704E-6  59.959E-6 -183.4E-6   1.8       
 34.E-9    -3.8541E-9  1.8        1.8        1.7999     1.7999     1.8        1.8001     1.768      153.58E-6 -16.788E-6 -4.5214E-6  6.5672E-6 -30.707E-6 -11.802E-6  60.826E-6 -78.572E-6  164.3E-6   1.8       
 34.5E-9   -1.3502E-9  1.8001     1.8        1.8        1.8        1.7999     1.8        1.7999     1.4821     166.84E-6  1.917E-6   3.3796E-6  11.839E-6  13.301E-6 -47.61E-6   60.718E-6 -179.12E-6  1.8       
 35.E-9     619.1E-12  1.8        1.8        1.8        1.8        1.8        1.8        1.8        1.8        1.8564     14.153E-6  17.631E-6  21.91E-6   9.5076E-6 -43.636E-6  62.115E-6 -177.24E-6  1.8001    
 35.5E-9   -4.1098E-9  1.8        1.8        1.8001     1.8        1.8        1.8        1.8        1.8        1.8        0.77396   -1.1875E-6 -3.3317E-6 -9.999E-6   58.083E-6 -21.56E-6   157.95E-6  1.8       
 36.E-9    -3.8257E-9  1.8001     1.8001     1.8        1.8        1.8        1.8001     1.8        1.8        1.8        1.7999     0.31098   -2.9903E-6 -11.861E-6  38.11E-6  -36.498E-6  185.69E-6  1.8       
 36.5E-9   -789.8E-12  1.8001     1.8001     1.7999     1.7999     1.8        1.7999     1.8        1.8        1.8        1.8        1.8        0.82702    10.531E-6 -10.231E-6  22.714E-6 -180.1E-6   1.7999    
 37.E-9    -668.8E-12  1.7999     1.7999     1.8001     1.8        1.8        1.8        1.8        1.8        1.7999     1.8001     1.8        1.7999     0.24193   -48.88E-6   21.406E-6 -201.65E-6  1.8       
 37.5E-9   -3.6194E-9  1.7999     1.7999     1.8001     1.7999     1.8        1.7999     1.8001     1.8        1.8001     1.8001     1.7999     1.8        1.7987     0.099291  -42.065E-6  135.86E-6  1.7999    
 38.E-9    -3.5955E-9  1.8001     1.8001     1.7999     1.7999     1.7999     1.8001     1.7999     1.7999     1.8001     1.8        1.7999     1.7999     1.8        1.7999     0.1036     147.51E-6  1.7999    
 38.5E-9    849.4E-12  1.8        1.7999     1.8        1.8        1.8        1.8        1.8        1.8        1.7999     1.8        1.8        1.8        1.8        1.8        1.8018    -81.857E-6  1.7995    
 39.E-9     1.0403E-9  1.8        1.7999     1.8        1.8        1.8        1.8        1.8        1.8        1.8        1.8        1.8        1.8        1.8        1.7999     1.8004     0.025506   0.063336  
 39.5E-9   -2.6814E-9  1.8        1.8        1.8        1.8        1.8        1.8        1.8        1.8        1.8        1.8        1.8        1.8        1.8        1.8        1.7998     1.6846    -0.034121  
 40.E-9     1.9673E-9  1.7999     1.7999     1.8001     1.8        1.8        1.8        1.8        1.8        1.8        1.8        1.8        1.8        1.8        1.8        1.8001     1.8334     0.01918   
 40.5E-9    1.8        1.7993     1.8002     1.7999     1.8001     1.8        1.8        1.8001     1.8001     1.8        1.7999     1.8001     1.8        1.8        1.7999     1.8        1.8        256.67E-6 
 41.E-9     1.8       -502.29E-6 -247.82E-6  1.8043     1.8        1.8        1.8001     1.8        1.8        1.8001     1.8001     1.7999     1.8        1.8        1.7999     1.7998     1.7999     46.527E-6 
 41.5E-9    1.8        668.43E-9  548.68E-9  90.145E-6  0.58109    1.7999     1.7999     1.7999     1.7999     1.8        1.8001     1.7999     1.7999     1.8        1.8001     1.8001     1.8       -96.396E-6 
 42.E-9     1.8        138.81E-6  48.014E-6 -66.21E-6   6.1551E-6  0.032012   1.7995     1.7999     1.8        1.8001     1.8        1.8        1.8001     1.8        1.7999     1.7999     1.8001    -47.521E-6 
 42.5E-9    1.8       -58.034E-6 -54.79E-6   109.55E-6  1.0895E-6 -8.9322E-6 -17.63E-6   1.6244     1.8        1.8001     1.8        1.8001     1.8001     1.8        1.8001     1.8        1.8001     68.86E-6  
 43.E-9     1.8        34.57E-6  -62.055E-6 -56.701E-6  75.034E-6 -14.485E-6 -29.254E-6 -29.742E-6  0.28453    1.7996     1.8        1.8        1.8        1.8001     1.7999     1.8        1.7998     37.118E-6 
 43.5E-9    1.8       -99.905E-6 -56.943E-6  114.41E-6  544.79E-9 -35.784E-6 -14.549E-6 -5.3019E-6  763.7E-9  -76.298E-6  1.8036     1.8        1.8        1.8        1.8002     1.7998     1.8001     61.77E-6  
 44.E-9     1.8       -75.853E-6 -37.298E-6  103.9E-6  -23.117E-6 -32.722E-6 -11.43E-6   1.3493E-6 -5.0076E-6 -54.385E-6  30.902E-6  1.1814     1.8        1.8        1.8        1.8001     1.8001     71.858E-6 
 44.5E-9    1.8        74.387E-6  79.844E-6 -92.113E-6  3.7999E-6 -6.9381E-6  6.4597E-6  6.5217E-6  28.075E-6  73.723E-6 -9.9471E-6  25.933E-6 -245.13E-6  1.8008     1.7999     1.8001     1.8       -81.703E-6 
 45.E-9     1.8        96.447E-6  32.255E-6 -73.029E-6  10.505E-6  29.278E-6  5.1038E-6  31.691E-6  27.436E-6  27.532E-6 -37.858E-6  41.906E-6  62.804E-6  129.09E-6  1.3561     1.8        1.8       -88.929E-6 
 45.5E-9    1.8        91.911E-6 -45.796E-6  54.071E-6  3.8882E-6 -5.7118E-6  49.115E-6  32.417E-6 -67.186E-6  37.687E-6 -31.376E-6  38.451E-6  31.471E-6  5.4054E-6 -54.678E-6  58.86E-6   1.8       -77.603E-6 
 46.E-9     1.8       -75.303E-6 -79.029E-6  79.475E-6  44.367E-6  49.407E-6 -35.58E-6   43.962E-6  1.3036E-6 -28.322E-6  2.8751E-6 -9.8576E-6 -47.424E-6  40.616E-6  25.497E-6 -6.4331E-6 -0.054153   1.7719    
 46.5E-9    1.8        61.005E-6  59.898E-6 -62.344E-6  4.823E-6  -1.1518E-6  10.516E-6  3.2172E-6 -1.2753E-6  18.427E-6 -22.015E-6  9.8055E-6  22.931E-6  20.707E-6 -39.899E-6  28.618E-6  0.011586   1.8015    
