#Time       v(a0)      v(sum0)    v(sum1)    v(sum2)    v(sum3)    v(sum4)    v(sum5)    v(sum6)    v(sum7)    v(sum8)    v(sum9)    v(sum10)   v(sum11)   v(sum12)   v(sum13)   v(sum14)   v(sum15)   v(cout)   
 0.        -167.E-15   1.8        1.8        1.8        1.8        1.8        1.8        1.8        1.8        1.8        1.8        1.8        1.8        1.8        1.8        1.8        1.8        10.552E-9 
 1.E-9      1.8       -197.3E-6   0.0113     1.7998     1.8        1.8        1.8        1.8        1.8        1.8        1.8        1.8        1.8        1.8        1.8        1.8        1.8       -56.361E-9 
 2.E-9      1.8        19.107E-6 -143.49E-6 -0.0027827  929.23E-6  1.7345     1.8        1.8        1.8        1.8        1.8        1.8        1.8        1.8        1.8        1.8        1.8        222.45E-9 
 3.E-9      1.8       -10.644E-6  5.9068E-6 -1.3251E-6  11.79E-6  -963.25E-9  568.27E-6  0.012948   1.7999     1.8        1.8        1.8        1.8        1.8        1.8        1.8        1.8       -1.1102E-6 
 4.E-9      1.8        9.5305E-6 -3.6793E-6  4.6456E-6 -7.9774E-6  1.0436E-6 -741.59E-9  9.3364E-6 -27.018E-6  0.011335   1.8002     1.8        1.8        1.8        1.8        1.8        1.8        873.85E-9 
 5.E-9      1.8        12.797E-6 -265.05E-9  9.6531E-6 -10.245E-6  853.36E-9 -476.93E-9 -7.7558E-6  3.6655E-6  16.172E-6 -752.86E-9  4.1404E-6 -0.042029   1.7998     1.8        1.8        1.8        1.1363E-6 
 6.E-9      1.8        12.15E-6   1.6403E-6  12.84E-6  -9.9876E-6  914.34E-9 -27.65E-9  -7.0207E-6  3.3661E-6  15.987E-6 -1.513E-6  -4.8593E-6 -510.42E-6  246.2E-6   0.01676    1.814      1.8        1.2907E-6 
 7.E-9      1.8       -11.867E-6 -1.4596E-6 -12.13E-6   9.5125E-6 -726.08E-9  205.89E-9  5.6828E-6 -2.4107E-6 -13.288E-6  1.5317E-6  2.567E-6   6.4006E-6 -12.241E-6 -66.877E-6  0.0085155 -0.015956   1.7909    
 8.E-9      1.8        13.129E-6  2.5836E-6  15.581E-6 -12.47E-6   939.36E-9  72.579E-9 -7.5366E-6  3.5926E-6  16.083E-6 -2.2788E-6 -3.0325E-6 -7.5705E-6  6.2802E-6  13.815E-6 -0.0034264  0.0069657  1.8019    
 9.E-9      1.8        13.6E-6    3.001E-6   16.813E-6 -13.765E-6  1.0206E-6  140.95E-9 -8.3482E-6  4.0946E-6  17.225E-6 -2.6003E-6 -3.3235E-6 -8.5786E-6  5.5398E-6  10.312E-6 -0.0030239  0.0061902  1.8015    
 10.E-9     1.8        13.51E-6   3.2716E-6  17.288E-6 -13.553E-6  1.0778E-6  194.21E-9 -8.2433E-6  3.997E-6   17.298E-6 -2.5475E-6 -3.237E-6  -8.748E-6   4.5031E-6  7.5085E-6 -0.0026697  0.0055004  1.8012    
 11.E-9    -76.99E-12  47.892E-6  117.11E-6  44.522E-6 -20.084E-6  1.9882E-6  1.1214E-6 -9.9803E-6  4.6212E-6  22.018E-6 -2.2495E-6 -3.6175E-6 -10.468E-6 -1.7649E-6 -5.007E-6  -5.4669E-6 -45.614E-6  1.7999    
 12.E-9    -4.0276E-9  1.7999     1.8001     1.7953     72.478E-6 -1.4588E-6 -911.76E-9  7.2278E-6 -3.2725E-6 -16.573E-6  1.5676E-6  2.1894E-6  6.4012E-6  1.4546E-6  2.8572E-6  2.9218E-6  30.371E-6  1.8       
 13.E-9    -75.59E-12  1.8        1.8        1.8        1.7999     0.15417   -208.57E-9 -9.8686E-6  5.1126E-6  22.683E-6 -2.2732E-6 -3.0553E-6 -7.6263E-6 -1.5485E-6 -3.8151E-6  377.66E-9 -36.374E-6  1.7999    
 14.E-9    -3.3759E-9  1.8        1.8        1.8        1.8        1.8        1.7999    -0.0024651 -6.882E-6  -30.782E-6  3.2778E-6  3.9507E-6  9.8221E-6  2.2214E-6  5.2772E-6 -2.5946E-6  44.947E-6  1.8001    
 15.E-9    -727.8E-12  1.8        1.8        1.8        1.8        1.8        1.8        1.8001     1.6117     116.22E-6 -3.7633E-6 -4.1997E-6 -10.152E-6 -2.1159E-6 -5.9162E-6  5.9114E-6 -46.882E-6  1.7999    
 16.E-9    -598.7E-12  1.8        1.8        1.8        1.8        1.8        1.8        1.8        1.8        1.8        0.46484   -7.082E-6  -12.384E-6 -2.7064E-6 -7.614E-6   8.8215E-6 -54.866E-6  1.7999    
 17.E-9    -2.9485E-9  1.8        1.8        1.8        1.8        1.8        1.8        1.8        1.8        1.8        1.8        1.8007    -747.45E-6  3.4333E-6  9.1989E-6 -12.429E-6  61.985E-6  1.8002    
 18.E-9    -682.9E-12  1.8        1.8        1.8        1.8        1.8        1.8        1.8        1.8        1.8        1.8        1.7999     1.8024     1.7742     86.105E-6  15.682E-6 -67.781E-6  1.7999    
 19.E-9    -194.2E-12  1.8        1.8        1.8        1.8        1.8        1.8        1.8        1.8        1.8        1.8        1.8        1.8008     1.801      1.6941     1.4745    -71.587E-6  1.7999    
 20.E-9    -2.4802E-9  1.8        1.8        1.8        1.8        1.8        1.8        1.8        1.8        1.8        1.8        1.8        1.8        1.7999     1.7997     1.802     -0.0034888  0.11075   
 21.E-9     1.8        0.099418  -0.090366   1.7998     1.8        1.8        1.8        1.8        1.8        1.8        1.8        1.8        1.8        1.8        1.8        1.8001     1.7998     799.61E-6 
 22.E-9     1.8        19.599E-6  17.739E-6  24.E-6     11.034E-6  1.5146     1.8        1.8        1.8        1.8        1.8        1.8        1.8        1.8        1.8        1.7999     1.8       -94.569E-6 
 23.E-9     1.8       -21.842E-6 -44.648E-6 -57.123E-6  30.924E-6 -4.7017E-6 -3.6528E-6  0.0028106  1.7999     1.8        1.8        1.8        1.8        1.8        1.8        1.8        1.8001     151.02E-6 
 24.E-9     1.8        16.231E-6  11.844E-6  27.703E-6 -24.908E-6  5.5901E-6  3.3919E-6 -23.918E-6  7.1691E-6  340.84E-6  1.4325     1.8        1.8        1.8        1.7999     1.8        1.7998    -125.06E-6 
 25.E-9     1.8       -11.58E-6  -4.4985E-6 -12.483E-6  13.191E-6 -5.458E-6  -3.9215E-6  21.759E-6 -8.56E-6   -19.033E-6 -12.54E-6  -258.13E-6  0.012944   1.7998     1.8        1.8        1.8001     97.849E-6 
 26.E-9     1.8        5.6193E-6  5.0141E-6  20.13E-6   3.033E-6   12.046E-6  7.177E-6  -5.9337E-6  17.025E-6  35.707E-6 -13.014E-6  2.7395E-6 -32.187E-6 -10.332E-6 -15.619E-6  0.23728    1.7999    -98.653E-6 
 27.E-9     1.8        13.406E-6 -7.7414E-6 -22.786E-6  12.561E-6  3.3528E-6 -19.821E-6  8.8227E-6 -4.6921E-6 -10.022E-6  12.373E-6  2.7994E-6  32.308E-6  8.9051E-6  44.523E-6  63.151E-6 -0.022461   1.7993    
 28.E-9     1.8       -19.589E-6  12.677E-6  23.53E-6  -23.047E-6  851.84E-9  26.014E-6 -13.136E-6  1.9395E-6  12.263E-6 -17.404E-6 -3.6379E-6 -46.635E-6 -12.417E-6 -56.978E-6 -85.485E-6  0.0095861  1.8001    
 29.E-9     1.8       -21.372E-6  13.675E-6  24.738E-6 -23.513E-6  1.6706E-6  27.112E-6 -14.813E-6  2.9273E-6  12.57E-6  -18.659E-6 -4.2065E-6 -47.91E-6  -13.498E-6 -59.783E-6 -89.508E-6  0.00851    1.8       
 30.E-9     1.8       -22.318E-6  13.692E-6  24.68E-6  -21.813E-6  1.1808E-6  26.228E-6 -13.971E-6  2.2149E-6  11.92E-6  -16.609E-6 -4.6549E-6 -45.532E-6 -11.038E-6 -57.953E-6 -89.944E-6  0.0075565  1.8       
 31.E-9    -2.5786E-9  23.194E-6  62.463E-6 -32.115E-6  17.657E-6  2.9917E-6 -7.9549E-6  11.42E-6  -3.918E-6  -1.103E-6   1.6307E-6  4.5775E-6  35.048E-6  2.5723E-6  27.334E-6  125.79E-6  160.73E-6  1.8001    
 32.E-9    -983.1E-12  1.8156     1.8089     1.8862    -16.081E-6 -2.8734E-6  4.6492E-6 -5.5871E-6 -684.15E-9 -1.4489E-6 -206.12E-9 -1.3408E-6 -27.193E-6 -687.28E-9 -24.004E-6 -114.87E-6 -161.11E-6  1.7999    
 33.E-9    -1.3395E-9  1.7999     1.7999     1.7999     1.7994     0.097404  -1.9206E-6  13.1E-6   -3.9473E-6  4.2728E-6  4.8465E-6  1.0414E-6  38.179E-6  2.7199E-6  32.637E-6  112.54E-6  170.16E-6  1.8001    
 34.E-9    -1.767E-9   1.8        1.8001     1.8        1.8        1.8        1.8007    -0.0014097 -112.02E-9  5.6787E-6 -7.5527E-6  5.2295E-6 -29.113E-6 -1.266E-6  -19.922E-6 -110.33E-6 -178.25E-6  1.8       
 35.E-9    -3.4095E-9  1.8        1.8001     1.8001     1.8        1.8        1.8        1.8001     1.5905     166.72E-6 -1.3584E-6 -1.0434E-6 -26.238E-6  238.59E-9 -16.505E-6 -101.3E-6  -144.65E-6  1.8       
 36.E-9    -1.6822E-9  1.8        1.7999     1.7999     1.8        1.8        1.8        1.8        1.8        1.8012     0.55766   -5.76E-6    35.541E-6  2.255E-6   19.78E-6   124.43E-6  187.43E-6  1.8       
 37.E-9    -2.0183E-9  1.8        1.8001     1.8001     1.8        1.8        1.8        1.8        1.8        1.8001     1.8        1.7916    -0.0070196 -1.364E-6  -20.483E-6 -127.04E-6 -182.62E-6  1.8001    
 38.E-9    -745.5E-12  1.8        1.7999     1.7999     1.8001     1.8        1.8        1.8        1.8        1.8        1.8        1.8        1.7999     1.7549     21.282E-6  130.05E-6  178.56E-6  1.8       
 39.E-9    -3.2011E-9  1.8        1.8001     1.8001     1.8        1.8        1.8        1.8        1.8        1.8001     1.8        1.8        1.7999     1.8        1.8        1.8071    -115.68E-6  1.8001    
 40.E-9    -350.E-12   1.8        1.7999     1.7999     1.8        1.8        1.8        1.8        1.8        1.7999     1.8        1.8        1.8        1.8        1.8        1.8        1.3095    -0.0090784 
 41.E-9     1.8       -0.019268   0.037816   1.7998     1.8        1.8        1.8        1.8        1.8        1.7999     1.8        1.8        1.8        1.8        1.8        1.8001     1.7999    -160.5E-6  
 42.E-9     1.8        54.472E-6  13.585E-6 -128.67E-6 -6.4788E-6  1.7168     1.8        1.8        1.7999     1.8001     1.8        1.8        1.8        1.8        1.8001     1.7999     1.7999    -131.46E-6 
 43.E-9     1.8        16.103E-6  35.299E-6  42.697E-6 -37.758E-6  11.417E-6  3.4139E-6  0.0058555  1.7998     1.8001     1.8        1.8001     1.8        1.8        1.7999     1.7998     1.7999    -97.21E-6  
 44.E-9     1.8        40.44E-6   28.719E-6  36.378E-6 -20.329E-6  2.3993E-6 -3.0409E-6 -26.693E-6  11.85E-6   50.338E-6  1.6714     1.8        1.8001     1.8        1.7999     1.7999     1.8001    -97.598E-6 
 45.E-9     1.8        45.525E-6  38.436E-6  65.129E-6 -26.276E-6  8.9024E-6 -1.8216E-6 -25.768E-6  16.816E-6  81.304E-6 -11.823E-6  33.737E-6  808.55E-6  1.7998     1.8001     1.7999     1.7999    -122.49E-6 
 46.E-9     1.8       -49.578E-6 -62.267E-6 -75.232E-6  32.285E-6 -9.77E-6   -10.31E-6   26.611E-6 -12.354E-6 -71.546E-6  10.852E-6 -21.799E-6  48.325E-6  19.548E-6  39.906E-6 -0.022734   1.7999     163.64E-6 
 47.E-9     1.8        71.114E-6  87.176E-6  107.14E-6 -43.201E-6  7.4412E-6  4.0788E-6 -18.844E-6  5.1651E-6  73.516E-6 -8.4341E-6  19.928E-6 -39.23E-6  -16.181E-6 -51.495E-6 -83.32E-6  -0.011075   1.8002    
 48.E-9     1.8       -78.503E-6 -93.155E-6 -116.23E-6  37.027E-6 -5.3217E-6 -3.9778E-6  24.509E-6 -7.9178E-6 -79.912E-6  12.205E-6 -21.422E-6  42.416E-6  17.598E-6  54.777E-6  120.86E-6  0.0051402  1.8       
 49.E-9     1.8        79.343E-6  94.793E-6  116.66E-6 -37.559E-6  6.7376E-6  5.1343E-6 -23.278E-6  7.7338E-6  79.344E-6 -11.843E-6  21.873E-6 -42.622E-6 -17.735E-6 -54.563E-6 -131.E-6   -0.0039134  1.7999    
 50.E-9     1.8        80.741E-6  95.266E-6  117.82E-6 -42.423E-6  6.9156E-6  4.8753E-6 -23.789E-6  8.485E-6   79.552E-6 -12.152E-6  23.197E-6 -43.08E-6  -18.167E-6 -55.673E-6 -136.73E-6 -0.0034704  1.7999    
 51.E-9     806.1E-12  49.181E-6  10.257E-6 -84.581E-6  16.484E-6 -6.7845E-6 -7.5167E-6  20.194E-6 -2.6993E-6 -71.854E-6  5.5496E-6 -17.766E-6  34.286E-6  4.7927E-6  26.122E-6  149.68E-6  143.11E-6  1.8       
 52.E-9    -4.3651E-9  1.8155     1.8088     1.8852    -19.46E-6   2.9248E-6  6.8409E-6 -14.115E-6  1.3354E-6  60.264E-6 -4.9453E-6  13.487E-6 -27.719E-6 -4.0089E-6 -24.158E-6 -150.93E-6 -141.22E-6  1.8       
 53.E-9     2.0719E-9  1.7999     1.7999     1.7999     1.7994     0.079611  -8.2767E-6  23.852E-6 -5.1294E-6 -71.162E-6  5.1226E-6 -18.829E-6  35.561E-6  7.7907E-6  30.562E-6  156.66E-6  144.64E-6  1.7999    
 54.E-9     2.6236E-9  1.7999     1.7999     1.7999     1.8        1.8        1.7778    -827.77E-6 -9.0923E-6 -79.191E-6  11.11E-6  -20.994E-6  42.683E-6  9.0064E-6  35.372E-6  167.51E-6  137.35E-6  1.8       
 55.E-9    -6.6092E-9  1.8        1.8001     1.8001     1.8        1.8        1.8        1.8        1.525      135.4E-6  -806.01E-9  18.965E-6 -23.981E-6 -210.85E-9 -15.802E-6 -113.51E-6 -132.9E-6   1.7999    
 56.E-9    -6.4272E-9  1.8001     1.8001     1.8001     1.8        1.8        1.8        1.8        1.8        1.7996     0.31561    10.833E-6 -36.95E-6  -7.292E-6  -25.356E-6 -150.61E-6 -156.64E-6  1.8       
 57.E-9    -5.4322E-9  1.8001     1.8001     1.8001     1.8001     1.8        1.8        1.8        1.8        1.8001     1.8        1.7994    -0.0079259 -8.0894E-6 -27.186E-6 -147.54E-6 -192.21E-6  1.8001    
 58.E-9     1.635E-9   1.7999     1.7998     1.7999     1.8        1.8        1.8        1.8        1.8        1.7999     1.8        1.8        1.8037     1.6869     122.63E-6  153.03E-6  195.78E-6  1.7999    
 59.E-9    -5.953E-9   1.8001     1.8001     1.8001     1.8        1.8        1.8        1.8        1.8        1.8        1.8        1.8        1.7993     1.7995     1.8028     1.4004    -195.77E-6  1.8001    
 60.E-9     3.6627E-9  1.7999     1.7998     1.7999     1.8        1.8        1.8        1.8        1.8        1.7999     1.8        1.8        1.8002     1.8002     1.8018     1.8348     0.044985  -0.11145   
