#Time       v(a0)      v(cout)    v(sum0)    v(sum1)    v(sum2)    v(sum3)    v(sum4)    v(sum5)    v(sum6)    v(sum7)   
 0.        -78.E-15    10.552E-9  1.8        1.8        1.8        1.8        1.8        1.8        1.8        1.8       
 100.E-12   1.8        102.93E-6  1.8        1.8        1.8        1.7999     1.8        1.7999     1.8        1.7998    
 200.E-12   1.8        86.788E-6  1.7999     1.7999     1.8        1.7999     1.8        1.7999     1.7999     1.8       
 300.E-12   1.8        67.14E-6   1.8007     1.8001     1.8        1.7999     1.8        1.7999     1.8        1.7999    
 400.E-12   1.8        78.487E-6  1.6486     1.7997     1.8        1.7999     1.8        1.7999     1.7999     1.7999    
 500.E-12   1.8        11.925E-6  526.87E-6  1.8004     1.8001     1.7999     1.8        1.7999     1.7999     1.7999    
 600.E-12   1.8       -53.843E-6  88.58E-6   1.802      1.8        1.8002     1.8        1.8        1.8002     1.8       
 700.E-12   1.8       -59.035E-6  34.662E-6  0.12945    1.8001     1.8        1.8        1.8001     1.8        1.8001    
 800.E-12   1.8       -27.384E-6  5.0031E-6  0.027312   1.7998     1.8001     1.8        1.8        1.8001     1.8       
 900.E-12   1.8       -53.949E-6 -5.2636E-6  0.0076813  1.801      1.8002     1.8        1.8001     1.8001     1.8001    
 1.E-9      1.8       -24.696E-6 -4.8689E-6  0.0021923  1.7194     1.8001     1.8        1.8001     1.8        1.7999    
 1.1E-9     1.8       -53.326E-6 -665.83E-9  639.68E-6  0.61983    1.8        1.8        1.8        1.8001     1.8001    
 1.2E-9     1.8       -26.593E-6  4.2365E-6  314.84E-6  0.0019756  1.7995     1.8        1.8001     1.8        1.7999    
 1.3E-9     1.8       -46.983E-6  8.6799E-6  182.81E-6 -39.347E-6  1.8114     1.7998     1.8        1.8001     1.8001    
 1.4E-9     1.8       -50.703E-6  12.378E-6  129.73E-6  14.211E-6  0.93916    1.8012     1.8001     1.8001     1.8001    
 1.5E-9     1.8        63.085E-6 -16.421E-6 -143.97E-6 -30.938E-6 -0.077432   1.7179     1.8        1.7998     1.7998    
 1.6E-9     1.8       -444.21E-6  16.949E-6  134.52E-6  24.416E-6  0.056161   0.93294    1.8        1.8001     1.8001    
 1.7E-9     1.8        0.33729   -18.895E-6 -129.77E-6 -23.722E-6 -0.038567   0.073227   1.7997     1.7998     1.8       
 1.8E-9     1.8        1.4391     20.169E-6  125.72E-6  23.604E-6  0.028156  -0.025721   1.8076     1.8004     1.8       
 1.9E-9     1.8        1.9099    -21.319E-6 -122.71E-6 -23.835E-6 -0.020236   0.0098555  1.2975     1.8169     1.8       
 2.E-9      1.8        1.754      22.254E-6  120.56E-6  24.399E-6  0.014869  -0.0038405  0.20203    0.66934    1.8       
 2.1E-9     1.8        1.8212    -22.99E-6  -118.97E-6 -24.885E-6 -0.010858   0.0015289 -0.089793  -0.072422   1.7996    
 2.2E-9     1.8        1.7896     23.664E-6  117.96E-6  25.474E-6  0.0080041 -679.6E-6   0.045966   0.051414   1.7285    
 2.3E-9     1.8        1.8053    -24.195E-6 -117.26E-6 -25.955E-6 -0.005881   288.65E-6 -0.023654  -0.034753   0.31343   
 2.4E-9     1.8        1.7968     24.682E-6  116.95E-6  26.474E-6  0.0043392 -126.89E-6  0.012462   0.024883  -0.15004   
 2.5E-9     1.8        1.8019    -25.05E-6  -116.8E-6  -26.897E-6 -0.0031945  50.207E-6 -0.0065888 -0.017591   0.10883   
 2.6E-9     1.8        1.7987     25.433E-6  116.92E-6  27.344E-6  0.0023583 -15.512E-6  0.0035003  0.012683  -0.072171  
 2.7E-9     1.8        1.8008    -25.738E-6 -117.11E-6 -27.71E-6  -0.0017437  271.42E-9 -0.001858  -0.0090977  0.052081  
 2.8E-9     1.8        1.7995     26.046E-6  117.48E-6  28.103E-6  0.0012937  5.884E-6   982.41E-6  0.0065763 -0.036532  
 2.9E-9     1.8        1.8004    -26.279E-6 -117.87E-6 -28.426E-6 -989.28E-6 -7.8195E-6 -528.17E-6 -0.0047385  0.026464  
 3.E-9      1.8        1.7998     26.556E-6  118.41E-6  28.775E-6  752.96E-6  7.9653E-6  324.61E-6  0.0034232 -0.018948  
 3.1E-9     1.8        1.8001    -26.781E-6 -118.92E-6 -29.058E-6 -624.45E-6 -7.3111E-6 -202.12E-6 -0.0024657  0.013766  
 3.2E-9     1.8        1.8        27.033E-6  119.54E-6  29.373E-6  516.73E-6  6.4354E-6  128.41E-6  0.0017781 -0.0099487 
 3.3E-9     1.8        1.7999    -27.222E-6 -120.12E-6 -29.632E-6 -433.08E-6 -5.4527E-6 -84.839E-6 -0.0012824  0.0072445 
 3.4E-9     1.8        1.8001     27.47E-6   120.8E-6   29.929E-6  366.95E-6  4.6192E-6  59.217E-6  925.72E-6 -0.0052639 
 3.5E-9     1.8        1.7999    -27.681E-6 -121.42E-6 -30.172E-6 -314.79E-6 -3.8464E-6 -44.561E-6 -687.96E-6  0.0038425 
 3.6E-9     1.8        1.8001     27.927E-6  122.14E-6  30.448E-6  273.73E-6  3.1147E-6  36.628E-6  566.99E-6 -0.0028064 
 3.7E-9     1.8        1.7999    -28.12E-6  -122.78E-6 -30.661E-6 -241.28E-6 -2.4414E-6 -32.719E-6 -466.52E-6  0.0020624 
 3.8E-9     1.8        1.8001     28.373E-6  123.51E-6  30.904E-6  215.83E-6  1.9786E-6  31.294E-6  390.41E-6 -0.0015242 
 3.9E-9     1.8        1.7999    -28.595E-6 -124.16E-6 -31.102E-6 -195.85E-6 -1.485E-6  -31.283E-6 -331.34E-6  0.0011749 
 4.E-9      1.8        1.8001     28.836E-6  124.9E-6   31.342E-6  180.22E-6  1.0321E-6  32.173E-6  286.01E-6 -923.67E-6 
 4.1E-9     1.8        1.8       -29.077E-6 -125.56E-6 -31.532E-6 -167.84E-6 -647.03E-9 -33.49E-6  -251.09E-6  724.33E-6 
 4.2E-9     1.8        1.8        29.41E-6   126.31E-6  31.759E-6  158.27E-6  368.91E-9  35.067E-6  224.42E-6 -574.15E-6 
 4.3E-9     1.8        1.8       -29.627E-6 -126.98E-6 -31.941E-6 -150.77E-6 -71.282E-9 -36.664E-6 -203.99E-6  452.93E-6 
 4.4E-9     1.8        1.8        29.926E-6  127.73E-6  32.165E-6  145.E-6   -199.57E-9  38.287E-6  188.53E-6 -354.82E-6 
 4.5E-9     1.8        1.8       -30.145E-6 -128.41E-6 -32.343E-6 -140.48E-6  506.45E-9 -39.803E-6 -176.77E-6  274.93E-6 
 4.6E-9     1.8        1.8        30.29E-6   129.16E-6  32.563E-6  137.07E-6 -641.18E-9  41.278E-6  168.05E-6 -209.36E-6 
 4.7E-9     1.8        1.8       -30.433E-6 -129.84E-6 -32.744E-6 -134.41E-6  811.53E-9 -42.615E-6 -161.47E-6  155.27E-6 
 4.8E-9     1.8        1.8        30.651E-6  130.61E-6  32.968E-6  132.48E-6 -958.67E-9  43.904E-6  156.7E-6  -110.27E-6 
 4.9E-9     1.8        1.8       -30.781E-6 -131.29E-6 -33.134E-6 -130.99E-6  1.089E-6  -45.058E-6 -153.29E-6  72.623E-6 
 5.E-9      1.8        1.8        30.934E-6  132.06E-6  33.382E-6  129.99E-6 -1.1604E-6  46.175E-6  150.98E-6 -40.831E-6 
