#Time       v(a0)      v(cout)    v(sum0)    v(sum1)    v(sum2)    v(sum3)    v(sum4)    v(sum5)    v(sum6)    v(sum7)   
 0.        -48.E-15    10.552E-9  10.552E-9  10.552E-9  10.552E-9  10.552E-9  10.552E-9  10.552E-9  10.552E-9  10.552E-9 
 500.E-12   1.8        15.803E-6 -2.2022E-6  1.3868E-6 -82.075E-6  6.1007E-6  64.543E-6  17.009E-6  14.151E-6  1.4493E-6 
 1.E-9      1.8        20.511E-6 -2.5612E-6  2.0878E-6 -90.596E-6  7.4207E-6  71.341E-6  19.585E-6  17.56E-6   2.027E-6  
 1.5E-9     1.8       -22.832E-6  2.7406E-6 -2.3635E-6  94.058E-6 -7.9992E-6 -74.01E-6  -20.613E-6 -19.149E-6 -2.3169E-6 
 2.E-9      1.8        21.606E-6 -2.6248E-6  2.4686E-6 -93.122E-6  7.8607E-6  73.482E-6  20.627E-6  18.337E-6  2.2587E-6 
 2.5E-9     1.8       -20.722E-6  2.571E-6  -2.5539E-6  92.499E-6 -7.7445E-6 -73.067E-6 -20.669E-6 -17.718E-6 -2.2055E-6 
 3.E-9      1.8        19.972E-6 -2.4778E-6  2.6782E-6 -91.767E-6  7.6718E-6  72.688E-6  20.745E-6  17.187E-6  2.1982E-6 
 3.5E-9     1.8       -19.264E-6  2.4303E-6 -2.7602E-6  91.1E-6   -7.5621E-6 -72.235E-6 -20.774E-6 -16.659E-6 -2.1553E-6 
 4.E-9      1.8        18.678E-6 -2.3439E-6  2.8829E-6 -90.344E-6  7.4992E-6  71.832E-6  20.842E-6  16.219E-6  2.1592E-6 
 4.5E-9     1.8       -18.109E-6  2.3028E-6 -2.9614E-6  89.655E-6 -7.3968E-6 -71.354E-6 -20.861E-6 -15.77E-6  -2.124E-6  
 5.E-9      1.8        17.642E-6 -2.2224E-6  3.0798E-6 -88.881E-6  7.3399E-6  70.929E-6  20.921E-6  15.397E-6  2.1334E-6 
 5.5E-9     37.14E-12 -28.698E-6  2.7652E-6 -5.6843E-6  90.705E-6 -9.5222E-6 -72.388E-6 -25.894E-6 -21.824E-6 -3.1719E-6 
 6.E-9      39.91E-12 -30.757E-6  2.9246E-6 -7.3789E-6  99.953E-6 -11.309E-6 -80.306E-6 -30.001E-6 -24.183E-6 -4.2579E-6 
 6.5E-9    -40.28E-12  31.208E-6 -2.9335E-6  7.8261E-6 -102.05E-6  11.72E-6   82.208E-6  31.061E-6  24.664E-6  4.4838E-6 
 7.E-9      40.16E-12 -29.803E-6  2.8723E-6 -8.0088E-6  102.02E-6 -11.629E-6 -82.308E-6 -31.353E-6 -23.862E-6 -4.3865E-6 
 7.5E-9    -40.27E-12  28.765E-6 -2.7797E-6  8.2421E-6 -101.97E-6  11.616E-6  82.544E-6  31.722E-6  23.271E-6  4.3628E-6 
 8.E-9      40.3E-12  -27.796E-6  2.7321E-6 -8.4232E-6  101.96E-6 -11.555E-6 -82.658E-6 -32.019E-6 -22.68E-6  -4.3006E-6 
 8.5E-9    -40.58E-12  26.998E-6 -2.6452E-6  8.6381E-6 -101.8E-6   11.535E-6  82.809E-6  32.345E-6  22.186E-6  4.2843E-6 
 9.E-9      40.8E-12  -26.242E-6  2.6036E-6 -8.7995E-6  101.7E-6  -11.467E-6 -82.845E-6 -32.601E-6 -21.682E-6 -4.2256E-6 
 9.5E-9    -40.98E-12  25.624E-6 -2.5224E-6  8.991E-6  -101.47E-6  11.436E-6  82.919E-6  32.882E-6  21.259E-6  4.2085E-6 
 10.E-9     41.E-12   -25.023E-6  2.4863E-6 -9.1269E-6  101.29E-6 -11.356E-6 -82.881E-6 -33.094E-6 -20.817E-6 -4.1494E-6 
 10.5E-9    1.8        20.605E-6 -1.944E-6   9.5713E-6 -93.057E-6  10.053E-6  77.646E-6  32.577E-6  17.099E-6  3.6592E-6 
 11.E-9     1.8       -23.363E-6  1.9362E-6 -10.318E-6  92.714E-6 -10.382E-6 -78.122E-6 -34.095E-6 -18.166E-6 -4.0414E-6 
 11.5E-9    1.8        25.899E-6 -2.0454E-6  10.832E-6 -96.069E-6  11.114E-6  80.985E-6  35.554E-6  19.824E-6  4.4575E-6 
 12.E-9     1.8       -24.807E-6  2.0176E-6 -10.822E-6  95.572E-6 -10.916E-6 -80.611E-6 -35.497E-6 -19.161E-6 -4.2589E-6 
 12.5E-9    1.8        24.166E-6 -1.9608E-6  10.89E-6  -95.212E-6  10.839E-6  80.494E-6  35.584E-6  18.768E-6  4.1757E-6 
 13.E-9     1.8       -23.541E-6  1.9472E-6 -10.911E-6  94.915E-6 -10.723E-6 -80.288E-6 -35.613E-6 -18.364E-6 -4.0657E-6 
 13.5E-9    1.8        23.047E-6 -1.8926E-6  10.975E-6 -94.522E-6  10.659E-6  80.149E-6  35.689E-6  18.048E-6  4.0141E-6 
 14.E-9     1.8       -22.565E-6  1.8818E-6 -10.993E-6  94.208E-6 -10.557E-6 -79.929E-6 -35.711E-6 -17.717E-6 -3.9311E-6 
 14.5E-9    1.8        22.19E-6  -1.83E-6    11.049E-6 -93.801E-6  10.502E-6  79.771E-6  35.777E-6  17.459E-6  3.8989E-6 
 15.E-9     1.8       -21.81E-6   1.8219E-6 -11.057E-6  93.473E-6 -10.406E-6 -79.53E-6  -35.789E-6 -17.175E-6 -3.8297E-6 
 15.5E-9    95.E-12   -28.156E-6  3.1057E-6 -15.214E-6  141.17E-6 -16.066E-6 -118.57E-6 -52.077E-6 -28.929E-6 -5.6462E-6 
 16.E-9     100.5E-12 -38.526E-6  3.8421E-6 -20.082E-6  170.58E-6 -22.158E-6 -143.49E-6 -65.477E-6 -41.707E-6 -9.0255E-6 
 16.5E-9   -102.E-12   43.068E-6 -4.0224E-6  21.569E-6 -168.95E-6  24.135E-6  151.21E-6  69.663E-6  45.99E-6   10.178E-6 
 17.E-9     101.7E-12 -40.325E-6  3.8852E-6 -21.655E-6  162.07E-6 -23.671E-6 -150.97E-6 -69.853E-6 -44.1E-6   -9.6643E-6 
 17.5E-9   -101.8E-12  38.165E-6 -3.7277E-6  21.868E-6 -155.55E-6  23.427E-6  151.3E-6   70.333E-6  42.851E-6  9.3759E-6 
 18.E-9     101.8E-12 -36.028E-6  3.618E-6  -22.01E-6   156.21E-6 -23.126E-6 -151.37E-6 -70.685E-6 -41.619E-6 -9.0724E-6 
 18.5E-9   -102.2E-12  33.942E-6 -3.4709E-6  22.179E-6 -156.38E-6  22.877E-6  151.53E-6  71.066E-6  40.552E-6  8.8432E-6 
 19.E-9     102.3E-12 -31.937E-6  3.3716E-6 -22.287E-6  156.67E-6 -22.583E-6 -151.47E-6 -71.337E-6 -39.507E-6 -8.5945E-6 
 19.5E-9   -102.6E-12  30.357E-6 -3.2352E-6  22.422E-6 -156.72E-6  22.337E-6  151.51E-6  71.633E-6  38.602E-6  8.4093E-6 
 20.E-9     102.5E-12 -29.003E-6  3.1466E-6 -22.496E-6  156.88E-6 -22.045E-6 -151.33E-6 -71.824E-6 -37.701E-6 -8.198E-6  
 20.5E-9    1.8        22.02E-6  -2.2574E-6  21.609E-6 -147.01E-6  18.648E-6  141.14E-6  68.707E-6  30.413E-6  6.7081E-6 
 21.E-9     1.8       -27.253E-6  2.0985E-6 -21.951E-6  149.61E-6 -18.645E-6 -141.62E-6 -70.117E-6 -31.959E-6 -7.169E-6  
 21.5E-9    1.8        30.871E-6 -2.2003E-6  22.797E-6 -155.6E-6   19.855E-6  146.75E-6  72.774E-6  34.811E-6  7.8344E-6 
 22.E-9     1.8       -29.941E-6  2.1551E-6 -22.667E-6  155.13E-6 -19.462E-6 -146.04E-6 -72.492E-6 -33.645E-6 -7.46E-6   
 22.5E-9    1.8        29.544E-6 -2.0793E-6  22.647E-6 -154.87E-6  19.242E-6  145.81E-6  72.455E-6  32.924E-6  7.2505E-6 
 23.E-9     1.8       -28.868E-6  2.0462E-6 -22.578E-6  154.75E-6 -18.987E-6 -145.4E-6  -72.335E-6 -32.207E-6 -7.0263E-6 
 23.5E-9    1.8        27.998E-6 -1.9714E-6  22.551E-6 -154.43E-6  18.794E-6  145.12E-6  72.28E-6   31.618E-6  6.8742E-6 
 24.E-9     1.8       -27.009E-6  1.9402E-6 -22.475E-6  154.26E-6 -18.565E-6 -144.68E-6 -72.151E-6 -31.026E-6 -6.6993E-6 
 24.5E-9    1.8        26.281E-6 -1.8681E-6  22.441E-6 -153.91E-6  18.389E-6  144.37E-6  72.08E-6   30.538E-6  6.5832E-6 
 25.E-9     1.8       -25.641E-6  1.84E-6   -22.359E-6  153.72E-6 -18.175E-6 -143.9E-6  -71.934E-6 -30.035E-6 -6.4377E-6 
 25.5E-9    201.5E-12 -26.106E-6  4.3267E-6 -36.179E-6  163.54E-6 -40.014E-6 -149.85E-6 -125.96E-6 -63.321E-6 -16.461E-6 
 26.E-9     206.5E-12 -25.896E-6  3.8867E-6 -42.23E-6   170.42E-6 -46.392E-6 -165.11E-6 -144.89E-6 -63.343E-6 -19.141E-6 
 26.5E-9   -207.5E-12  26.498E-6 -3.7072E-6  43.538E-6 -172.75E-6  47.476E-6  168.97E-6  149.1E-6   62.18E-6   19.44E-6  
 27.E-9     207.E-12  -24.963E-6  3.4841E-6 -43.754E-6  165.02E-6 -46.692E-6 -162.15E-6 -149.79E-6 -58.899E-6 -18.588E-6 
 27.5E-9   -207.E-12   23.682E-6 -3.2387E-6  44.06E-6  -164.27E-6  46.11E-6   156.02E-6  150.28E-6  56.271E-6  17.966E-6 
 28.E-9     207.E-12  -22.409E-6  3.0515E-6 -44.278E-6  163.32E-6 -45.471E-6 -156.49E-6 -150.3E-6  -53.508E-6 -17.37E-6  
 28.5E-9   -207.2E-12  21.265E-6 -2.8377E-6  44.519E-6 -162.32E-6  44.902E-6  156.93E-6  150.44E-6  50.958E-6  16.885E-6 
 29.E-9     207.2E-12 -20.009E-6  2.682E-6  -44.677E-6  161.74E-6 -44.281E-6 -157.18E-6 -150.37E-6 -48.692E-6 -16.404E-6 
 29.5E-9   -207.4E-12  18.908E-6 -2.4995E-6  44.858E-6 -160.91E-6  43.728E-6  157.61E-6  150.4E-6   46.791E-6  16.012E-6 
 30.E-9     208.E-12  -18.2E-6    2.3739E-6 -44.96E-6   160.12E-6 -43.123E-6 -157.84E-6 -150.25E-6 -45.071E-6 -15.612E-6 
