#Time       v(a0)      v(cout)    v(sum0)    v(sum1)    v(sum2)    v(sum3)    v(sum4)    v(sum5)    v(sum6)    v(sum7)   
 0.        -78.E-15    10.552E-9  1.8        1.8        1.8        1.8        1.8        1.8        1.8        1.8       
 250.E-12   1.8        98.648E-6  1.7993     1.7999     1.8        1.8        1.8        1.8        1.7999     1.7998    
 500.E-12   1.8       -58.71E-6   970.27E-6  1.8003     1.8        1.8        1.8        1.8        1.8001     1.8001    
 750.E-12   1.8       -92.299E-6  46.616E-6 -0.046373   1.8        1.8001     1.8        1.8        1.8001     1.8001    
 1.E-9      1.8        69.042E-6 -25.343E-6  0.015049   1.7175     1.7999     1.8        1.8        1.7998     1.8       
 1.25E-9    1.8        81.279E-6 -20.609E-6  0.0092354 -0.073104   1.7996     1.7999     1.8        1.7998     1.7999    
 1.5E-9     1.8        77.596E-6 -14.983E-6  0.0056915 -0.015698   0.075428   1.6973     1.8        1.7999     1.8       
 1.75E-9    1.8        0.78053   -9.946E-6   0.0035175 -0.003648   0.045398  -0.04752    1.7996     1.7997     1.7999    
 2.E-9      1.8        1.8251    -5.5051E-6  0.0021875 -849.08E-6  0.027624  -0.010184   0.41051    0.92316    1.8       
 2.25E-9    1.8        1.8124    -1.6186E-6  0.0013769 -171.14E-6  0.016931  -0.0022901  0.084737  -0.0025033  1.3019    
 2.5E-9     1.8        1.7976    -4.2956E-6 -578.19E-6 -20.49E-6  -0.0049868  68.549E-6 -0.0050882  0.0013634  0.031056  
 2.75E-9    1.4174E-9  1.8       -46.373E-6 -10.809E-6  632.02E-9  33.692E-6  1.6658E-6 -48.466E-6  74.217E-6  40.297E-6 
 3.E-9     -3.027E-9   1.8001    -0.0025402  16.204E-6 -11.157E-6 -55.745E-6 -2.1925E-6 -10.58E-6  -87.163E-6 -84.649E-6 
 3.25E-9    49.14E-12  1.8        1.6606    -0.003572   16.628E-6  79.609E-6  4.7117E-6  15.868E-6  119.65E-6  138.61E-6 
 3.5E-9    -2.8224E-9  1.8001     1.8106     1.7084    -25.606E-6 -85.901E-6 -5.3468E-6 -16.541E-6 -122.5E-6  -151.62E-6 
 3.75E-9    270.3E-12  1.7999     1.7986     1.8086    -0.0017029  79.975E-6  4.5645E-6  13.359E-6  109.09E-6  141.46E-6 
 4.E-9     -1.2924E-9  1.8        1.7994     1.8034     0.72558    84.569E-6  3.2465E-6  17.218E-6  123.77E-6  161.96E-6 
 4.25E-9   -1.365E-9   1.7999     1.7998     1.8015     1.8205    -745.19E-6  102.69E-6  16.612E-6  122.E-6    162.92E-6 
 4.5E-9    -1.5653E-9  1.7999     1.8        1.8007     1.8009     1.3081    -0.0047218  16.313E-6  120.29E-6  163.21E-6 
 4.75E-9   -3.7333E-9  1.4468     1.8        1.8003     1.8003     1.6953     1.217      45.826E-6  141.76E-6  163.32E-6 
 5.E-9      299.2E-12 -0.11271    1.8001     1.8001     1.8001     1.7656     1.797     -0.0034192 -290.24E-6  163.69E-6 
 5.25E-9    1.8        0.016241   1.7996     1.8        1.8        1.8019     1.8003     1.3126     0.0050093 -5.8604E-6 
 5.5E-9     1.8       -51.112E-6  0.01339    1.8026     1.8        1.8        1.8        1.7997     1.7998    -0.0083216 
 5.75E-9    1.8       -94.638E-6  0.0015999 -0.030495   1.8        1.8001     1.8        1.8        1.8        1.8346    
 6.E-9      1.8       -81.466E-6  0.0010456 -0.018295   1.4874     1.8001     1.8        1.8        1.8        1.8125    
 6.25E-9    1.8       -99.216E-6  724.09E-6 -0.011136  -0.11499    1.7999     1.7999     1.8        1.8001     1.8047    
 6.5E-9     1.8       -104.93E-6  518.32E-6 -0.0068324 -0.023986   0.053942   1.674      1.8        1.8001     1.8019    
 6.75E-9    1.8        0.81452    376.02E-6 -0.0042097 -0.0056005  0.03393   -0.063435   1.7997     1.7998     1.8008    
 7.E-9      1.8        1.8161     277.01E-6 -0.0026033 -0.0014009  0.021047  -0.013657   0.36956    0.62941    1.8003    
 7.25E-9    1.8        1.8108     207.38E-6 -0.0016263 -379.54E-6  0.013013  -0.0031293  0.084922   0.052435   1.1331    
 7.5E-9     1.8        1.7976    -104.79E-6  645.74E-6 -33.2E-6   -0.0038523  88.83E-6  -0.0051698 -0.011991   0.018946  
 7.75E-9    1.2354E-9  1.8001    -10.172E-6 -16.016E-6 -686.7E-9  -5.3483E-6  481.83E-9 -41.173E-6 -30.762E-6  130.4E-6  
 8.E-9      600.E-12   1.7999    -0.0023697  17.591E-6  9.4402E-6  54.418E-6  6.7165E-6  26.28E-6   61.93E-6   164.7E-6  
 8.25E-9   -118.6E-12  1.7998     1.5714    -0.0034455  17.541E-6  82.957E-6  11.447E-6  36.388E-6  88.824E-6  153.04E-6 
 8.5E-9    -2.7069E-9  1.8001     1.8164     1.7444    -19.012E-6 -86.918E-6 -8.8757E-6 -30.077E-6 -87.169E-6 -163.22E-6 
 8.75E-9   -3.7193E-9  1.8        1.806      1.7792    -0.0010882 -95.835E-6 -9.901E-6  -32.609E-6 -94.479E-6 -135.34E-6 
 9.E-9     -5.0014E-9  1.8001     1.8024     1.7919     0.70834   -102.84E-6 -11.86E-6  -31.339E-6 -94.578E-6 -149.56E-6 
 9.25E-9   -4.965E-9   1.8001     1.801      1.7966     1.8209    -454.02E-6  78.026E-6 -30.424E-6 -94.583E-6 -157.07E-6 
 9.5E-9    -5.2156E-9  1.8        1.8004     1.7985     1.801      1.2681    -0.0040803 -29.728E-6 -94.587E-6 -163.19E-6 
 9.75E-9   -7.4014E-9  1.4874     1.8001     1.7993     1.8003     1.7019     1.1113    -8.3828E-6 -73.293E-6 -168.33E-6 
 10.E-9    -3.2764E-9 -0.12054    1.8        1.7997     1.8002     1.7685     1.801     -0.0028689 -308.19E-6 -172.83E-6 
 10.25E-9   1.8        0.017228   1.7995     1.8        1.8        1.8015     1.8002     1.2619    -359.99E-6  154.19E-6 
 10.5E-9    1.8        23.28E-6   0.013382   1.8026     1.8        1.7999     1.8        1.7997     1.7999    -0.0068245 
 10.75E-9   1.8        77.129E-6  0.0016032 -0.030394   1.7999     1.7999     1.8        1.8        1.8        1.85      
 11.E-9     1.8        103.51E-6  0.0010477 -0.018236   1.4842     1.7998     1.8        1.8        1.7999     1.8179    
 11.25E-9   1.8        109.64E-6  723.8E-6  -0.011101  -0.11487    1.7997     1.7999     1.8        1.7999     1.8065    
 11.5E-9    1.8        113.86E-6  515.99E-6 -0.006812  -0.02395    0.055253   1.6724     1.8        1.7999     1.8025    
 11.75E-9   1.8        0.81531    371.9E-6  -0.0041981 -0.0055739  0.034683  -0.064439   1.7997     1.7997     1.8011    
 12.E-9     1.8        1.8159     271.22E-6 -0.0025994 -0.0013611  0.021504  -0.013872   0.36726    0.61057    1.8005    
 12.25E-9   1.8        1.8106     200.16E-6 -0.0016236 -320.64E-6  0.013302  -0.003179   0.084868   0.056155   1.1347    
 12.5E-9    1.8        1.7977    -96.46E-6   644.58E-6 -31.561E-6 -0.0039598  87.268E-6 -0.0051902 -0.012912   0.019017  
 12.75E-9  -2.9986E-9  1.8003    -11.808E-6 -40.72E-6  -30.511E-6 -104.13E-6 -5.5387E-6 -66.206E-6 -175.39E-6  18.481E-6 
 13.E-9    -3.7021E-9  1.8001    -0.0023667 -29.307E-6 -20.693E-6 -144.01E-6 -10.895E-6 -17.303E-6 -139.31E-6 -111.96E-6 
 13.25E-9  -4.4663E-9  1.8002     1.5719    -0.0034815 -36.081E-6 -171.81E-6 -17.399E-6 -27.83E-6  -162.86E-6 -171.6E-6  
 13.5E-9    1.6643E-9  1.7999     1.8163     1.7485     17.313E-6  164.E-6    14.657E-6  23.649E-6  152.33E-6  173.67E-6 
 13.75E-9  -4.2016E-9  1.8001     1.7982     1.8055    -0.0013148 -164.27E-6 -14.423E-6 -23.265E-6 -147.11E-6 -166.04E-6 
 14.E-9    -5.7239E-9  1.8        1.7992     1.8024     0.69015   -176.6E-6  -18.366E-6 -25.936E-6 -155.8E-6  -172.84E-6 
 14.25E-9  -5.7197E-9  1.8        1.7997     1.8011     1.8222    -425.01E-6  69.133E-6 -25.436E-6 -153.78E-6 -172.04E-6 
 14.5E-9   -5.9734E-9  1.8        1.7999     1.8005     1.8011     1.2635    -0.0039497 -24.83E-6  -151.66E-6 -168.84E-6 
 14.75E-9  -8.1413E-9  1.5048     1.8        1.8002     1.8004     1.7024     1.0805    -6.237E-6  -129.91E-6 -164.24E-6 
 15.E-9    -4.0204E-9 -0.124      1.8001     1.8        1.8002     1.7686     1.8023    -0.0026937 -320.61E-6 -163.34E-6 
#Time       v(a0)      v(cout)    v(sum0)    v(sum1)    v(sum2)    v(sum3)    v(sum4)    v(sum5)    v(sum6)    v(sum7)   
 15.E-9    -2.6697E-9  0.0010253  1.8        1.7998     1.8        1.8002     1.8        1.8        1.8048     1.7912    
 15.25E-9   1.8       -230.88E-6  1.7995     1.8001     1.8        1.7999     1.8        1.8        1.7998     1.8011    
 15.5E-9    1.8       -4.7317E-6 -0.036575   1.8026     1.8        1.8        1.8        1.8        1.8        1.7999    
 15.75E-9   1.8        12.232E-6  0.011333  -0.14183    1.7999     1.8        1.8        1.8        1.7999     1.8       
 16.E-9     1.8       -17.816E-6 -0.003554   0.042923   1.5054     1.8        1.8        1.8        1.8001     1.8       
 16.25E-9   1.8        21.96E-6   0.0011374 -0.013793   0.0032586  1.8009     1.7999     1.8        1.7999     1.7999    
 16.5E-9    1.8        104.79E-6  810.07E-6 -0.0084797  0.0010344 -0.012378   1.5765     1.8        1.7998     1.7999    
 16.75E-9   1.8        1.0608     581.6E-6  -0.0052235  336.57E-6 -0.0037754 -0.10669    1.7999     1.8        1.7999    
 17.E-9     1.8        1.7522     424.85E-6 -0.0032205  70.521E-6 -0.0012093 -0.022785   0.26228    0.28194    1.7996    
 17.25E-9   1.8        1.7927     316.7E-6  -0.001995  -5.1056E-6 -413.92E-6 -0.0053298  0.07383    0.11307    0.2975    
 17.5E-9    1.8        1.7998     241.46E-6 -0.0012464 -20.397E-6 -156.46E-6 -0.0013264  0.025391   0.06108    0.11538   
 17.75E-9   1.8        1.8007     188.72E-6 -889.76E-6 -27.044E-6 -120.81E-6 -311.78E-6  0.0091855  0.034975   0.061534  
 18.E-9     1.8        1.8006     151.12E-6 -649.95E-6 -31.157E-6 -125.8E-6  -58.342E-6  0.0034012  0.020526   0.035058  
 18.25E-9   1.8        1.8004     124.2E-6  -489.24E-6 -33.867E-6 -117.73E-6  7.104E-6   0.0013213  0.012197   0.020531  
 18.5E-9    1.8        1.8002     104.54E-6 -377.16E-6 -35.695E-6 -102.75E-6  20.842E-6  541.74E-6  0.007299   0.012185  
 18.75E-9   1.8        1.7998    -106.47E-6  367.59E-6  49.033E-6  102.69E-6 -26.396E-6 -437.82E-6 -0.0064183 -0.010685  
 19.E-9    -3.4677E-9  1.7999     58.668E-6 -137.04E-6 -79.297E-6 -298.25E-9  7.7462E-6 -43.449E-6 -240.05E-6 -204.16E-6 
 19.25E-9   1.8181E-9  1.8001    -0.0021454  185.95E-6  32.018E-6 -23.885E-6  5.4481E-6  26.75E-6   151.22E-6  117.03E-6 
 19.5E-9   -4.6141E-9  1.7999     1.7082    -0.0035472 -26.982E-6  30.17E-6  -5.6139E-6 -22.388E-6 -142.6E-6  -138.74E-6 
 19.75E-9   2.005E-9   1.8001     1.8069     1.723      27.857E-6 -38.527E-6  7.8124E-6  27.553E-6  60.77E-6   175.19E-6 
 20.E-9     1.0767E-9  1.8        1.8024     1.7715    -0.0012659 -43.303E-6  9.2627E-6  29.47E-6   104.09E-6  185.22E-6 
 20.25E-9  -194.8E-12  1.8        1.8009     1.789      0.73839   -50.314E-6  7.4487E-6  27.849E-6  123.87E-6  183.9E-6  
 20.5E-9   -172.9E-12  1.8        1.8005     1.7954     1.8193    -668.34E-6  100.86E-6  26.798E-6  139.71E-6  180.47E-6 
 20.75E-9  -348.9E-12  1.8        1.8002     1.798      1.8007     1.3018    -0.0041799  26.215E-6  128.06E-6  177.49E-6 
 21.E-9    -2.5667E-9  1.4774     1.8001     1.7991     1.8002     1.6963     1.1317     49.069E-6  148.17E-6  173.98E-6 
 21.25E-9   1.5494E-9 -0.11864    1.8        1.7997     1.8001     1.766      1.8001    -0.00315   -245.06E-6  170.83E-6 
 21.5E-9   -284.8E-12 -0.05456    1.8        1.7999     1.8        1.7885     1.7994     1.0483     0.010306   181.48E-6 
 21.75E-9   2.4515E-9 -0.025991   1.8        1.8        1.7999     1.796      1.7996     1.7857     1.9351    -0.0045519 
 22.E-9     2.3324E-9 -0.01261    1.8        1.8001     1.8        1.7986     1.7998     1.7987     1.8441     1.6612    
 22.25E-9   2.8096E-9 -0.0061831  1.7999     1.8001     1.8        1.7995     1.7999     1.7999     1.8147     1.7538    
 22.5E-9    2.9724E-9 -0.003054   1.7999     1.8001     1.8        1.7997     1.8        1.7999     1.8046     1.7838    
 22.75E-9   1.8        562.38E-6  1.7995     1.8        1.8        1.8001     1.8        1.8        1.7999     1.8017    
 23.E-9     1.8       -5.9139E-6 -0.069889   1.8025     1.8        1.7999     1.8        1.8        1.8001     1.8002    
 23.25E-9   1.8       -11.932E-6  0.021102  -0.14167    1.7999     1.8001     1.8        1.8        1.7999     1.7999    
 23.5E-9    1.8        14.705E-6 -0.0065482  0.042864   1.5199     1.7999     1.8        1.8        1.8001     1.8002    
 23.75E-9   1.8       -14.441E-6  0.0020691 -0.013765   966.89E-6  1.8007     1.7998     1.8        1.7998     1.7999    
 24.E-9     1.8        60.596E-6  0.0012575 -0.0084581  532.37E-6 -0.0059676  1.5801     1.8        1.7999     1.8       
 24.25E-9   1.8        1.0543     874.84E-6 -0.0052056  221.72E-6 -28.207E-6 -0.1058     1.7999     1.8        1.7999    
 24.5E-9    1.8        1.7536     621.98E-6 -0.0032047  42.23E-6   0.00103   -0.0226     0.26409    0.28288    1.7997    
 24.75E-9   1.8        1.7932     455.02E-6 -0.0019802 -9.1624E-6  950.2E-6  -0.0052822  0.074119   0.11315    0.30073   
 25.E-9     1.8        1.8        340.54E-6 -0.0012314 -20.175E-6  692.76E-6 -0.0013147  0.025472   0.061114   0.11543   
 25.25E-9   1.8        1.8008     261.57E-6 -843.42E-6 -19.711E-6  430.91E-6 -310.48E-6  0.0092111  0.034994   0.061502  
 25.5E-9    1.8        1.8007     206.69E-6 -616.06E-6 -23.93E-6   281.76E-6 -57.899E-6  0.0034092  0.02054    0.035032  
 25.75E-9   1.8        1.8004     168.3E-6  -467.E-6   -26.73E-6   191.44E-6  5.8457E-6  0.0013065  0.012208   0.020516  
 26.E-9     1.8        1.8002     141.17E-6 -365.36E-6 -26.896E-6  137.07E-6  18.246E-6  535.09E-6  0.0073082  0.01218   
 26.25E-9   1.8        1.7998    -143.95E-6  359.98E-6  39.93E-6  -131.56E-6 -21.966E-6 -432.18E-6 -0.0064276 -0.010682  
 26.5E-9   -8.231E-9   1.7998     90.067E-6 -208.01E-6 -110.96E-6  73.648E-6 -4.7528E-6 -37.977E-6 -257.81E-6 -252.39E-6 
 26.75E-9   6.5252E-9  1.8       -0.0021795  143.49E-6  36.377E-6 -110.97E-6  6.9715E-6  20.766E-6  103.74E-6  149.87E-6 
 27.E-9    -9.1444E-9  1.8001     1.7317    -0.0034351 -22.021E-6  75.489E-6 -7.4686E-6 -14.582E-6 -95.612E-6 -162.52E-6 
 27.25E-9   6.5735E-9  1.8        1.8052     1.72       30.105E-6 -88.029E-6  5.4049E-6  17.054E-6  76.032E-6  124.68E-6 
 27.5E-9    5.6383E-9  1.8001     1.8018     1.7705    -0.0012627 -86.203E-6 -1.5329E-6  18.028E-6  93.172E-6  144.96E-6 
 27.75E-9   4.3618E-9  1.8        1.8007     1.7887     0.73753   -87.591E-6 -2.4705E-6  16.257E-6  76.665E-6  135.92E-6 
 28.E-9     4.3623E-9  1.8        1.8004     1.7953     1.8193    -738.16E-6  90.636E-6  15.325E-6  106.48E-6  146.79E-6 
 28.25E-9   4.1939E-9  1.8001     1.8002     1.7979     1.8007     1.3087    -0.0041858  14.887E-6  84.304E-6  150.6E-6  
 28.5E-9    1.956E-9   1.4784     1.8001     1.7991     1.8002     1.6956     1.1324     37.29E-6   135.88E-6  141.19E-6 
 28.75E-9   6.0688E-9 -0.11884    1.8        1.7997     1.8001     1.7655     1.8001    -0.0029803 -256.92E-6  146.14E-6 
 29.E-9     4.2065E-9 -0.054641   1.8        1.7999     1.8        1.7883     1.7993     1.0349     0.010746   145.43E-6 
 29.25E-9   6.9475E-9 -0.026027   1.8        1.8        1.7999     1.7959     1.7996     1.7868     1.9355    -0.0045572 
 29.5E-9    6.8051E-9 -0.012628   1.7999     1.8001     1.8        1.7985     1.7998     1.7988     1.8443     1.6589    
 29.75E-9   7.277E-9  -0.0061919  1.7999     1.8002     1.8        1.7995     1.7999     1.8        1.8147     1.7532    
 30.E-9     7.4326E-9 -0.0030585  1.7999     1.8001     1.8        1.7997     1.8        1.8        1.8047     1.7835    
#Time       v(a0)      v(cout)    v(sum0)    v(sum1)    v(sum2)    v(sum3)    v(sum4)    v(sum5)    v(sum6)    v(sum7)   
 30.E-9     10.598E-9 -762.35E-6  1.8        1.8002     1.8        1.7998     1.8        1.7999     1.8005     1.7971    
 30.25E-9   1.8       -442.33E-6  1.7997     1.8002     1.8        1.7999     1.8001     1.7999     1.8002     1.7989    
 30.5E-9    1.8        133.81E-6 -0.05513    1.8006     1.8        1.8001     1.8        1.8        1.7999     1.8       
 30.75E-9   1.8        50.947E-6 -0.0059739 -0.1206     1.8        1.8001     1.8        1.8        1.7998     1.7999    
 31.E-9     1.8       -64.945E-6  0.0018646  0.036824   1.7156     1.7999     1.8        1.8        1.8001     1.8       
 31.25E-9   1.8        60.515E-6 -677.63E-6 -0.011856  -0.025738   1.7993     1.7999     1.8        1.8        1.7999    
 31.5E-9    1.8       -67.965E-6  316.01E-6  0.0034935  351.63E-6 -0.10837    1.7614     1.8        1.8001     1.8001    
 31.75E-9   1.8        1.3095     113.29E-6  605.22E-6 -9.2251E-6 -0.013831  -0.0040512  1.8005     1.8001     1.8001    
 32.E-9     1.8        1.811     -63.827E-6 -311.55E-6  16.22E-6   0.0046247  101.22E-6  0.1074     0.38372    1.7997    
 32.25E-9   1.8        1.804     -47.105E-6 -241.15E-6  19.798E-6  0.0028512  51.672E-6  0.035197   0.13454    0.35315   
 32.5E-9    1.8        1.7993     17.017E-6  135.53E-6 -18.312E-6 -962.87E-6 -7.9241E-6 -0.0033209 -0.03507   -0.04476   
 32.75E-9   1.8        1.8001     2.4902E-6 -86.633E-6  19.3E-6    492.76E-6 -10.096E-6  389.15E-6  0.010827   0.013484  
 33.E-9     1.8        1.8        4.8251E-6 -76.533E-6  22.49E-6   382.95E-6 -20.36E-6   163.85E-6  0.0064899  0.0080496 
 33.25E-9   1.8        1.8001    -6.2788E-6  77.973E-6 -29.504E-6 -368.17E-6  31.62E-6  -125.14E-6 -0.0057093 -0.0070735 
 33.5E-9    1.8        1.7999     5.8931E-6 -74.813E-6  27.578E-6  343.48E-6 -30.495E-6  95.956E-6  0.0050383  0.0062406 
 33.75E-9   1.8        1.8001    -7.0316E-6  72.368E-6 -27.183E-6 -320.82E-6  31.189E-6 -71.309E-6 -0.0044361 -0.0054897 
 34.E-9     1.8        1.7999     7.6124E-6 -69.977E-6  26.79E-6   299.99E-6 -31.733E-6  51.257E-6  0.0039155  0.0048441 
 34.25E-9   1.8        1.8001    -7.4548E-6  67.813E-6 -26.448E-6 -280.55E-6  32.437E-6 -34.763E-6 -0.0034505 -0.0042652 
 34.5E-9    1.8        1.7999     7.6856E-6 -65.743E-6  26.207E-6  262.64E-6 -33.108E-6  21.262E-6  0.0030476  0.0037645 
 34.75E-9   1.8        1.8001    -8.0327E-6  63.845E-6 -25.965E-6 -245.95E-6  33.86E-6  -10.131E-6 -0.0026902 -0.0033174 
 35.E-9     1.8        1.7999     9.0612E-6 -61.997E-6  25.817E-6  230.57E-6 -34.539E-6  1.0068E-6  0.0023797  0.0029294 
 35.25E-9   9.5245E-9  1.7996     68.892E-6  41.689E-6 -51.209E-6 -93.569E-6  151.25E-6  104.79E-6  156.22E-6  261.51E-6 
 35.5E-9   -11.097E-9  1.8001    -0.0021264 -65.87E-6   26.679E-6  30.383E-6 -29.57E-6  -43.2E-6   -163.42E-6 -77.249E-6 
 35.75E-9   8.2624E-9  1.8001     1.7007    -0.0034791 -20.44E-6  -36.703E-6  14.791E-6  27.613E-6  135.24E-6  102.8E-6  
 36.E-9     8.9702E-9  1.8        1.7992     1.7565    -27.44E-6  -42.907E-6  29.664E-6  30.543E-6  170.46E-6  132.42E-6 
 36.25E-9  -11.402E-9  1.8        1.8002     1.8043    -0.0017007  47.873E-6 -28.397E-6 -33.932E-6 -119.9E-6  -149.72E-6 
 36.5E-9   -12.983E-9  1.8        1.8001     1.8018     0.73059    47.159E-6 -33.024E-6 -40.285E-6 -147.05E-6 -157.32E-6 
 36.75E-9  -13.069E-9  1.8        1.8        1.8009     1.8202    -913.21E-6  66.748E-6 -35.965E-6 -154.93E-6 -150.76E-6 
 37.E-9    -13.212E-9  1.8        1.8        1.8004     1.8009     1.3316    -0.0044129 -35.801E-6 -160.82E-6 -149.16E-6 
 37.25E-9  -15.443E-9  1.464      1.8        1.8002     1.8003     1.6936     1.1811    -5.7242E-6 -72.011E-6 -145.12E-6 
 37.5E-9    8.1602E-9  0.034231   1.8        1.8        1.7999     1.8066     1.8001    -0.0032331 -334.36E-6  125.41E-6 
 37.75E-9   6.5341E-9  0.016452   1.8        1.8        1.8        1.8024     1.8002     1.0745     0.014214   166.97E-6 
 38.E-9     9.4107E-9  0.0080403  1.8        1.8001     1.8        1.801      1.8001     1.7827     1.9387    -0.0054509 
 38.25E-9   9.5193E-9  0.0039726  1.8        1.8001     1.8        1.8005     1.8001     1.7981     1.8452     1.7458    
 38.5E-9    9.8024E-9  0.0019832  1.8        1.8001     1.8        1.8003     1.8        1.7997     1.815      1.7792    
 38.75E-9   9.8865E-9  0.0010404  1.8        1.8001     1.8        1.8001     1.8        1.8        1.8047     1.7914    
 39.E-9    -9.9502E-9 -909.7E-6   1.8        1.7999     1.8        1.7999     1.8001     1.8        1.7964     1.807     
 39.25E-9   9.9293E-9  784.04E-6  1.8        1.8001     1.8        1.8001     1.8        1.8        1.8027     1.7943    
