#Time       v(a0)      v(sum7)    v(sum0)    v(sum1)    v(sum2)    v(sum3)    v(sum4)    v(sum5)    v(sum6)    v(cout)   
 0.        -145.E-15   1.8        1.8        1.8        1.8        1.8        1.8        1.8        1.8        10.552E-9 
 100.E-12   1.8        1.8        1.8        1.8        1.7999     1.8        1.8        1.8        1.8       -577.99E-9 
 200.E-12   1.8        1.8        1.8001     1.8        1.8        1.8        1.8        1.8        1.8       -481.43E-9 
 300.E-12   1.8        1.8        1.8001     1.8        1.8        1.8        1.8        1.8        1.8       -402.6E-9  
 400.E-12   1.8        1.8        1.7999     1.8        1.8001     1.8        1.8        1.8        1.8        469.03E-9 
 500.E-12   1.8        1.8        1.8001     1.8        1.8        1.8        1.8        1.8        1.8       -411.19E-9 
 600.E-12   1.8        1.8        1.7996     1.8        1.8        1.8        1.8        1.8        1.8        406.16E-9 
 700.E-12   1.8        1.8        1.8119     1.7995     1.8        1.8        1.8        1.8        1.8       -358.25E-9 
 800.E-12   1.8        1.8        0.7908     1.8188     1.8001     1.8        1.8        1.8        1.8        353.35E-9 
 900.E-12   1.8        1.8       -0.034591   0.57487    1.7999     1.8        1.8        1.8        1.8       -307.74E-9 
 1.E-9      1.8        1.8        0.024128  -0.097161   1.8        1.8        1.8        1.8        1.8        306.12E-9 
 1.1E-9     1.8        1.8       -0.016616   0.070469   1.7997     1.8        1.8        1.8        1.8       -264.09E-9 
 1.2E-9     1.8        1.8        0.012047  -0.047802   1.8044     1.8        1.8        1.8        1.8        266.45E-9 
 1.3E-9     1.8        1.8       -0.0087425  0.034765   1.4943     1.8        1.8        1.8        1.8       -228.74E-9 
 1.4E-9     1.8        1.8        0.0064465 -0.024791   0.38622    1.8        1.8        1.8        1.8        235.19E-9 
 1.5E-9     1.8        1.8       -0.0047548  0.018123  -0.1096     1.7997     1.8        1.8        1.8       -201.39E-9 
 1.6E-9     1.8        1.8        0.0035372 -0.013132   0.050185   1.8057     1.8        1.8        1.8        211.8E-9  
 1.7E-9     1.8        1.8       -0.0026383  0.0096207 -0.023081   1.2624     1.8        1.8        1.8       -181.81E-9 
 1.8E-9     1.8        1.8        0.0019801 -0.0070158  0.010993   0.12844    1.8        1.8        1.8        195.55E-9 
 1.9E-9     1.8        1.8        711.27E-6 -0.001957   334.27E-6  0.019934   1.7997     1.8        1.8        158.86E-9 
 2.E-9      1.8        1.8        333.17E-6 -569.E-6    41.835E-6  0.0035917  1.8021     1.8        1.8        163.28E-9 
 2.1E-9     1.8        1.8        148.77E-6 -271.64E-6  16.197E-6  670.08E-6  1.6879     1.8        1.8        170.86E-9 
 2.2E-9     1.8        1.8        2.7112E-6  63.864E-6 -21.672E-6 -85.749E-6  0.40303    1.8        1.8       -149.57E-9 
 2.3E-9     1.8        1.8       -56.126E-6 -16.899E-6  29.302E-6  35.449E-6  0.0014481  1.7998     1.8        194.9E-9  
 2.4E-9     1.8        1.8       -79.776E-6 -6.5519E-6  35.186E-6  36.362E-6  17.968E-6  1.82       1.8        227.65E-9 
 2.5E-9     1.8        1.8       -89.377E-6  2.4337E-6  35.364E-6  35.686E-6  1.8273E-6  0.87237    1.8        228.26E-9 
 2.6E-9     1.8        1.8       -95.977E-6  7.2456E-6  35.117E-6  33.736E-6 -1.0008E-6 -0.028696   1.8        233.18E-9 
 2.7E-9     1.8        1.7999     118.78E-6 -9.9741E-6 -54.236E-6 -41.422E-6  2.4014E-6  0.016686   1.7996    -268.61E-9 
 2.8E-9     1.8        1.8001    -115.98E-6  10.668E-6  45.326E-6  39.094E-6 -220.85E-9 -0.009658   1.8132     283.47E-9 
 2.9E-9     1.8        1.7999     117.44E-6 -12.56E-6  -43.942E-6 -39.882E-6 -103.77E-9  0.0056497  1.1603    -267.06E-9 
 3.E-9      1.8        1.8001    -117.67E-6  13.67E-6   41.863E-6  39.665E-6  1.1444E-6 -0.0033041  0.11818    289.37E-9 
 3.1E-9     1.8        1.7998     117.96E-6 -14.483E-6 -40.644E-6 -39.368E-6 -1.6041E-6  0.0019397 -0.059267  -271.25E-9 
 3.2E-9     1.8        1.8       -118.19E-6  15.193E-6  39.627E-6  38.83E-6   2.3334E-6 -0.001142   0.031767  -1.3085E-6 
 3.3E-9     1.8        1.8022     118.42E-6 -15.752E-6 -38.78E-6  -38.168E-6 -2.7841E-6  678.75E-6 -0.01702    256.99E-6 
 3.4E-9     1.8        1.809     -118.31E-6  16.142E-6  38.108E-6  37.536E-6  3.1042E-6 -444.79E-6  0.0092604 -0.0098567 
 3.5E-9     1.8        0.54878    118.29E-6 -16.535E-6 -37.488E-6 -36.851E-6 -3.3082E-6  290.42E-6 -0.0050377  1.1455    
 3.6E-9     1.8       -0.096416  -118.42E-6  16.881E-6  37.001E-6  36.256E-6  3.5666E-6 -190.12E-6  0.0027511  1.9278    
 3.7E-9     1.8        0.071232   118.59E-6 -16.907E-6 -36.551E-6 -35.646E-6 -3.735E-6   123.77E-6 -0.0015007  1.7315    
 3.8E-9     1.8       -0.049937  -118.53E-6  17.001E-6  36.218E-6  35.142E-6  3.9556E-6 -80.029E-6  817.84E-6  1.8307    
 3.9E-9     1.8        0.036943   118.64E-6 -17.2E-6   -35.884E-6 -34.632E-6 -4.0909E-6  51.084E-6 -508.88E-6  1.7848    
 4.E-9      1.8       -0.02677   -118.76E-6  17.391E-6  35.632E-6  34.213E-6  4.2642E-6 -31.812E-6  320.69E-6  1.8072    
 4.1E-9     1.8        0.019844   118.88E-6 -17.516E-6 -35.379E-6 -33.796E-6 -4.3598E-6  19.032E-6 -203.72E-6  1.7967    
 4.2E-9     1.8       -0.014558  -118.94E-6  17.745E-6  35.216E-6  33.48E-6   4.4867E-6 -10.44E-6   130.7E-6   1.8015    
 4.3E-9     1.8        0.010802   119.08E-6 -17.785E-6 -35.029E-6 -33.146E-6 -4.5447E-6  4.7304E-6 -84.725E-6  1.7994    
 4.4E-9     1.8       -0.0079712 -119.18E-6  17.81E-6   34.907E-6  32.893E-6  4.6354E-6 -839.39E-9  55.73E-6   1.8002    
 4.5E-9     1.8        0.0059178  119.43E-6 -17.952E-6 -34.771E-6 -32.638E-6 -4.664E-6  -1.7463E-6 -37.201E-6  1.7999    
 4.6E-9     1.8       -0.0043809 -119.52E-6  18.064E-6  34.696E-6  32.458E-6  4.7258E-6  3.547E-6   25.358E-6  1.8001    
 4.7E-9     1.8        0.0032543  119.64E-6 -18.073E-6 -34.586E-6 -32.25E-6  -4.7314E-6 -4.7373E-6 -17.619E-6  1.7999    
 4.8E-9     1.8       -0.0024183 -119.88E-6  18.264E-6  34.545E-6  32.12E-6   4.7734E-6  5.5973E-6  12.588E-6  1.8001    
 4.9E-9     1.8        0.0018072  120.2E-6  -18.379E-6 -34.476E-6 -31.973E-6 -4.7627E-6 -6.1535E-6 -9.2033E-6  1.7999    
 5.E-9      1.8       -0.0013541 -120.25E-6  18.531E-6  34.453E-6  31.883E-6  4.7906E-6  6.5815E-6  6.9589E-6  1.8001    
 5.1E-9     1.8        0.0010187  120.43E-6 -18.715E-6 -34.389E-6 -31.77E-6  -4.7673E-6 -6.8445E-6 -5.3711E-6  1.7999    
 5.2E-9     4.0395E-9 -831.26E-6 -120.78E-6  18.808E-6  34.378E-6  31.73E-6   4.7847E-6  7.0713E-6  4.3029E-6  1.8001    
 5.3E-9     3.8801E-9 -9.8734E-6 -144.21E-6  19.188E-6  35.237E-6  33.412E-6  5.1964E-6  7.688E-6   1.1981E-6  1.8001    
 5.4E-9     2.5988E-9 -586.51E-9 -177.8E-6   29.219E-6  48.429E-6  47.519E-6  4.6172E-6  9.8002E-6  1.129E-6   1.8001    
 5.5E-9     3.3692E-9  5.7168E-6 -162.95E-6  35.425E-6  45.54E-6   48.675E-6  4.4482E-6  9.9466E-6 -741.67E-9  1.8001    
 5.6E-9     3.4745E-9  9.9419E-6 -130.51E-6  35.717E-6  41.925E-6  46.327E-6  4.2246E-6  8.7924E-6 -240.41E-9  1.8001    
 5.7E-9     3.2887E-9  12.798E-6 -158.02E-6  34.356E-6  39.765E-6  43.727E-6  3.9388E-6  8.3311E-6  465.85E-9  1.8001    
 5.8E-9     3.3335E-9  15.193E-6 -105.98E-6  34.006E-6  38.764E-6  41.517E-6  3.5217E-6  7.1885E-6  996.38E-9  1.8001    
 5.9E-9    -6.704E-9  -19.169E-6  228.1E-6   28.871E-6 -60.094E-6 -51.439E-6 -6.2158E-6 -9.6909E-6 -2.6714E-6  1.7999    
 6.E-9      1.4692E-9  19.089E-6 -11.217E-6  110.68E-6  50.075E-6  48.566E-6  4.9646E-6  9.1035E-6  1.9908E-6  1.8001    
 6.1E-9    -6.3924E-9 -19.772E-6 -0.0031209 -0.0014891 -49.095E-6 -49.837E-6 -4.4269E-6 -9.3506E-6 -984.75E-9  1.7999    
 6.2E-9     2.1555E-9  20.028E-6  0.0094122 -0.0092628  46.836E-6  49.742E-6  4.0378E-6  9.2155E-6  636.89E-9  1.8001    
 6.3E-9    -8.1483E-9 -20.296E-6  1.1602     0.68896   -45.987E-6 -49.685E-6 -3.9133E-6 -9.0668E-6 -326.73E-9  1.7999    
 6.4E-9     3.4322E-9  20.622E-6  1.9172     1.703      43.522E-6  49.188E-6  3.9249E-6  8.7951E-6  309.36E-9  1.8001    
 6.5E-9    -6.4279E-9 -20.803E-6  1.7349     1.8473     31.755E-6 -48.547E-6 -3.8268E-6 -8.6097E-6 -290.27E-9  1.7999    
 6.6E-9     2.2186E-9  20.993E-6  1.8311     1.7743     86.06E-6   48.126E-6  3.709E-6   8.5189E-6  426.88E-9  1.8001    
 6.7E-9    -5.564E-9  -21.091E-6  1.7836     1.8137    -0.0015711 -47.624E-6 -3.5959E-6 -8.3008E-6 -581.57E-9  1.7999    
 6.8E-9     3.1013E-9  21.225E-6  1.8084     1.7926    -0.008738   47.085E-6  3.6856E-6  8.2701E-6  671.13E-9  1.8001    
 6.9E-9    -6.5958E-9 -21.403E-6  1.7957     1.8041     0.39205   -47.253E-6 -3.6756E-6 -8.1765E-6 -830.91E-9  1.7999    
 7.E-9     -6.1529E-9 -19.013E-6  1.7998     1.8006     1.4471    -47.197E-6 -3.0829E-6 -6.7244E-6 -1.0161E-6  1.7999    
 7.1E-9     2.377E-9   22.882E-6  1.8003     1.7996     1.8195     164.32E-6  5.2683E-6  8.642E-6   3.9437E-6  1.8001    
 7.2E-9    -6.136E-9  -22.456E-6  1.7998     1.8002     1.7964    -27.429E-6 -4.1927E-6 -7.986E-6  -3.1944E-6  1.7999    
 7.3E-9     3.0447E-9  22.799E-6  1.8002     1.7999     1.8006    -0.0033456  4.1753E-6  8.459E-6   2.1495E-6  1.8001    
 7.4E-9    -5.5597E-9 -22.914E-6  1.7999     1.8001     1.7998     0.014441  -3.9055E-6 -8.4871E-6 -1.7109E-6  1.7999    
 7.5E-9     1.9328E-9  23.129E-6  1.8001     1.8        1.8        0.97975    2.754E-6   8.3828E-6  1.5858E-6  1.8001    
 7.6E-9     3.2775E-9  20.553E-6  1.8        1.8        1.7999     1.8086    -3.9292E-6  7.2315E-6  1.039E-6   1.8001    
 7.7E-9     2.1223E-9  20.837E-6  1.8        1.8        1.8        1.8004     134.08E-6  6.9615E-6  2.3156E-6  1.8001    
 7.8E-9     2.7071E-9  21.268E-6  1.7999     1.8        1.8        1.7999    -88.84E-6   7.1042E-6  2.1283E-6  1.8001    
 7.9E-9     2.8752E-9  21.747E-6  1.7999     1.8        1.8        1.7999    -0.0026145  7.4117E-6  1.4748E-6  1.8001    
 8.E-9      2.891E-9   22.416E-6  1.7999     1.8        1.8        1.7999    -0.0075814  6.5929E-6  1.6694E-6  1.8001    
 8.1E-9     1.7919E-9  22.955E-6  1.7999     1.8        1.8        1.8        0.40934    1.7323E-6  895.63E-9  1.8001    
 8.2E-9     1.3103E-9  23.325E-6  1.7998     1.8        1.8        1.8        1.4618     143.43E-6  1.1293E-6  1.8001    
 8.3E-9     1.9265E-9  23.991E-6  1.8        1.8        1.8        1.8        1.776      13.419E-6  506.38E-9  1.8001    
 8.4E-9     2.874E-9   24.322E-6  1.7999     1.8        1.8        1.8        1.7992    -0.0016636  139.21E-9  1.8001    
 8.5E-9     2.8125E-9  24.961E-6  1.8        1.8        1.8        1.8        1.7999    -0.0088758 -182.54E-9  1.8001    
 8.6E-9     1.9066E-9  25.261E-6  1.7999     1.8        1.8        1.8        1.8        0.30365   -3.2849E-6  1.8001    
 8.7E-9     2.54E-9    25.716E-6  1.7999     1.8        1.8        1.8        1.8        1.5812    -6.4049E-6  1.8001    
 8.8E-9     2.0595E-9  26.347E-6  1.8        1.8        1.8001     1.8        1.8        1.799      129.57E-6  1.8001    
 8.9E-9     2.3047E-9  26.881E-6  1.7999     1.8        1.7999     1.8        1.8        1.7999    -1.531E-6   1.8001    
 9.E-9      2.7741E-9  27.308E-6  1.7999     1.8        1.8        1.8        1.8        1.8       -0.0017157  1.8       
 9.1E-9     2.7554E-9  28.162E-6  1.8        1.8001     1.8001     1.8        1.8        1.8       -0.0079217  1.8001    
 9.2E-9     1.9979E-9  25.67E-6   1.7999     1.8001     1.7999     1.8        1.8        1.8        0.22168    1.8001    
 9.3E-9     1.7441E-9  29.364E-6  1.7999     1.8001     1.8        1.8        1.8        1.8        1.4147     1.8001    
 9.4E-9     1.6506E-9  78.025E-6  1.8        1.8001     1.8001     1.8        1.8        1.8        1.7917     1.8001    
 9.5E-9     2.4828E-9  26.836E-6  1.7999     1.8001     1.7999     1.8        1.8        1.8        1.8        1.8001    
 9.6E-9     2.9322E-9  3.1059E-6  1.8        1.8001     1.8        1.8        1.8        1.8        1.8        1.8       
 9.7E-9     2.8588E-9 -178.69E-6  1.7999     1.8001     1.8        1.8        1.8        1.8        1.8        1.7996    
 9.8E-9     2.4908E-9 -753.61E-6  1.8001     1.8001     1.8        1.8        1.8        1.8        1.8        1.8083    
 9.9E-9    -6.2143E-9 -0.0015198  1.8001     1.7999     1.8        1.8        1.8        1.8        1.7999     0.93814   
 10.E-9     3.3486E-9 -0.0034638  1.7999     1.8001     1.8        1.8        1.8        1.8        1.8        0.0034065 
 10.1E-9    1.8        0.005514   1.8        1.7999     1.8        1.8        1.8        1.8        1.8       -0.0047301 
 10.2E-9    1.8        0.71008    1.8        1.8001     1.8        1.8        1.8        1.8        1.8        0.0042776 
 10.3E-9    1.8        1.6958     1.8        1.7999     1.8        1.8        1.8        1.8        1.8       -0.0034588 
 10.4E-9    1.8        1.7957     1.8        1.7999     1.8        1.8        1.8        1.8        1.8       -0.0010588 
 10.5E-9    1.8        1.7996     1.8        1.7999     1.8001     1.8        1.8        1.8        1.8       -336.11E-6 
 10.6E-9    1.8        1.7997     1.7995     1.7997     1.8001     1.8        1.8        1.8        1.8       -190.74E-6 
 10.7E-9    1.8        1.7999     1.825      1.8016     1.8        1.8        1.8        1.8        1.8       -134.01E-6 
 10.8E-9    1.8        1.7999     0.39166    1.6778     1.8001     1.8        1.8        1.8        1.8       -113.7E-6  
 10.9E-9    1.8        1.8       -0.0049917 -0.012023   1.8        1.8        1.8        1.8        1.8        91.754E-6 
 11.E-9     1.8        1.8        202.34E-6  717.71E-6  1.7999     1.8        1.8        1.8        1.8       -109.41E-6 
 11.1E-9    1.8        1.8       -78.259E-6 -102.63E-6  1.8009     1.8        1.8        1.8        1.8        93.112E-6 
 11.2E-9    1.8        1.8       -101.73E-6 -28.547E-6  1.7532     1.8        1.8        1.8        1.8        106.83E-6 
 11.3E-9    1.8        1.8        138.04E-6  2.4143E-6  0.41575    1.8        1.8        1.8        1.8       -126.34E-6 
 11.4E-9    1.8        1.8       -136.39E-6  19.027E-6  745.96E-6  1.7995     1.8        1.8        1.8        118.72E-6 
 11.5E-9    1.8        1.8        150.75E-6 -31.197E-6 -17.953E-6  1.8042     1.8        1.8        1.7999    -126.37E-6 
 11.6E-9    1.8        1.8        146.87E-6 -34.643E-6 -15.05E-6   1.449      1.8        1.8        1.8       -118.46E-6 
 11.7E-9    1.8        1.8       -54.678E-6  47.318E-6  33.412E-6 -0.015538   1.8001     1.8001     1.8001     147.08E-6 
 11.8E-9    1.8        1.8001    -109.11E-6  32.611E-6  28.813E-6 -188.63E-6  1.7997     1.8        1.8        96.553E-6 
 11.9E-9    1.8        1.8       -108.42E-6  56.513E-6  36.37E-6   17.516E-6  1.8025     1.8001     1.8001     119.95E-6 
 12.E-9     1.8        1.7999     192.75E-6 -89.371E-6 -72.604E-6 -31.967E-6  1.6424     1.7999     1.7999    -175.55E-6 
 12.1E-9    1.8        1.7999     139.99E-6 -74.508E-6 -75.711E-6 -46.399E-6  0.3609     1.7998     1.8       -169.14E-6 
 12.2E-9    1.8        1.7999     126.17E-6 -37.763E-6 -46.095E-6 -33.877E-6  0.0017303  1.7998     1.8001    -93.663E-6 
 12.3E-9    1.8        1.7999     138.57E-6 -22.026E-6 -36.041E-6 -39.724E-6  2.6204E-6  1.8227     1.8       -100.26E-6 
 12.4E-9    1.8        1.7998     211.E-6   -22.638E-6 -52.852E-6 -51.357E-6 -17.824E-6  0.59374    1.8001    -122.6E-6  
 12.5E-9    1.8        1.8        217.52E-6 -33.946E-6 -42.32E-6  -58.109E-6 -20.344E-6 -0.0047186  1.7999    -150.95E-6 
 12.6E-9    1.8        1.7999    -155.9E-6   18.762E-6  23.665E-6  29.75E-6   15.89E-6  -30.939E-6  1.7996     100.79E-6 
 12.7E-9    1.8        1.7999     174.71E-6 -32.612E-6 -18.349E-6 -16.043E-6 -20.001E-6 -11.291E-6  1.8202    -85.78E-6  
 12.8E-9    1.8        1.8       -138.45E-6  41.689E-6  59.9E-6    57.531E-6  24.853E-6  28.754E-6  0.90297    182.58E-6 
 12.9E-9    1.8        1.8       -149.86E-6  26.73E-6   43.579E-6  42.506E-6  23.197E-6  29.946E-6 -0.026824   175.16E-6 
 13.E-9     1.8        1.7997     159.35E-6 -25.597E-6 -30.965E-6 -18.501E-6 -15.348E-6 -22.286E-6 -12.702E-6 -129.61E-6 
 13.1E-9    1.8        1.8007    -157.98E-6  27.486E-6  38.469E-6  11.179E-6  25.557E-6  28.52E-6   40.16E-6   55.068E-6 
 13.2E-9    1.8        1.8075     112.68E-6 -38.903E-6 -45.312E-6 -53.175E-6 -26.777E-6 -32.463E-6 -29.988E-6 -0.0063824 
 13.3E-9    1.8        1.5552     102.9E-6  -23.769E-6 -38.536E-6 -39.817E-6 -26.537E-6 -33.933E-6 -31.566E-6  0.62804   
 13.4E-9    1.8       -0.035795   147.88E-6 -22.5E-6   -31.12E-6  -30.003E-6 -25.005E-6 -31.684E-6 -29.077E-6  1.8354    
 13.5E-9    1.8       -0.011603   130.49E-6 -15.455E-6 -31.989E-6 -31.401E-6 -23.817E-6 -30.03E-6  -27.474E-6  1.8027    
 13.6E-9    1.8       -0.0033471  151.7E-6  -19.312E-6 -37.549E-6 -21.96E-6  -23.089E-6 -29.047E-6 -27.518E-6  1.8003    
 13.7E-9    1.8        0.0024917 -147.68E-6  23.431E-6  53.869E-6  31.05E-6   38.172E-6  40.064E-6  40.074E-6  1.7999    
 13.8E-9    1.8       -0.0018302  128.03E-6 -23.004E-6 -44.068E-6 -24.618E-6 -30.686E-6 -35.962E-6 -34.867E-6  1.8       
 13.9E-9    1.8        0.0013526 -115.21E-6  27.268E-6  44.39E-6   23.954E-6  30.131E-6  35.414E-6  33.386E-6  1.8001    
 14.E-9     1.8       -994.01E-6  127.46E-6 -24.155E-6 -38.797E-6 -23.48E-6  -28.525E-6 -34.202E-6 -31.714E-6  1.7999    
 14.1E-9    1.8        756.4E-6  -136.5E-6   21.582E-6  35.831E-6  23.732E-6  27.674E-6  33.403E-6  30.602E-6  1.8001    
 14.2E-9    1.8       -579.54E-6  147.13E-6 -24.066E-6 -38.098E-6 -25.944E-6 -26.887E-6 -32.598E-6 -29.627E-6  1.7999    
 14.3E-9    1.8        444.95E-6 -151.39E-6  26.483E-6  39.727E-6  22.902E-6  26.346E-6  31.99E-6   28.978E-6  1.8001    
 14.4E-9    1.8       -381.55E-6  128.03E-6 -23.515E-6 -36.388E-6 -22.629E-6 -25.851E-6 -31.429E-6 -28.394E-6  1.7999    
 14.5E-9    1.8        328.13E-6 -141.42E-6  22.612E-6  35.949E-6  24.336E-6  25.511E-6  31.022E-6  27.999E-6  1.8001    
 14.6E-9    1.8       -286.1E-6   144.68E-6 -23.527E-6 -37.193E-6 -21.199E-6 -25.203E-6 -30.629E-6 -27.62E-6   1.7999    
 14.7E-9    1.8        253.01E-6 -149.16E-6  19.51E-6   33.791E-6  19.134E-6  24.995E-6  30.341E-6  27.367E-6  1.8002    
 14.8E-9    1.8       -226.32E-6  127.41E-6 -18.093E-6 -33.6E-6   -22.389E-6 -24.782E-6 -30.064E-6 -27.105E-6  1.7998    
 14.9E-9    1.8        205.11E-6 -112.37E-6  16.917E-6  35.292E-6  25.448E-6  24.659E-6  29.888E-6  26.936E-6  1.8001    
 15.E-9     1.8       -187.84E-6  122.72E-6 -14.567E-6 -32.275E-6 -23.448E-6 -24.54E-6  -29.692E-6 -26.745E-6  1.7999    
 15.1E-9    1.8        173.93E-6 -128.63E-6  18.034E-6  32.562E-6  23.712E-6  24.504E-6  29.568E-6  26.63E-6   1.8001    
 15.2E-9   -3.5541E-9 -162.48E-6  110.32E-6 -20.96E-6  -34.429E-6 -25.469E-6 -24.424E-6 -29.434E-6 -26.487E-6  1.7999    
 15.3E-9    2.3104E-9  133.48E-6 -79.712E-6  57.337E-6  66.062E-6  66.967E-6  53.108E-6  42.592E-6  35.021E-6  1.8       
 15.4E-9   -5.0807E-9 -137.9E-6   115.61E-6 -27.59E-6  -54.75E-6  -45.557E-6 -33.137E-6 -41.806E-6 -31.028E-6  1.8       
 15.5E-9   -4.296E-9  -145.13E-6  102.45E-6 -37.027E-6 -47.958E-6 -36.816E-6 -39.563E-6 -43.546E-6 -32.187E-6  1.8       
 15.6E-9   -4.1847E-9 -138.01E-6  115.65E-6 -25.412E-6 -39.887E-6 -30.789E-6 -25.713E-6 -40.773E-6 -29.13E-6   1.7999    
 15.7E-9   -4.3676E-9 -131.72E-6  61.056E-6 -23.191E-6 -44.643E-6 -29.822E-6 -26.225E-6 -38.823E-6 -27.581E-6  1.8       
 15.8E-9   -4.3131E-9 -127.1E-6   46.003E-6 -23.426E-6 -39.279E-6 -38.249E-6 -27.961E-6 -37.614E-6 -26.681E-6  1.7999    
 15.9E-9    951.2E-12  151.07E-6  33.405E-6  88.107E-6  68.065E-6  51.574E-6  41.078E-6  51.717E-6  39.406E-6  1.8002    
 16.E-9    -6.1623E-9 -145.39E-6  89.974E-6  108.74E-6 -55.348E-6 -44.872E-6 -29.33E-6  -46.773E-6 -34.027E-6  1.8       
 16.1E-9    1.2437E-9  144.83E-6 -0.0033541 -0.0014707  56.661E-6  43.666E-6  31.298E-6  46.7E-6    32.317E-6  1.8       
