#Time       v(a0)      v(cout)    v(sum0)    v(sum1)    v(sum2)    v(sum3)    v(sum4)    v(sum5)    v(sum6)    v(sum7)   
 0.        -83.E-15    10.552E-9  1.8        1.8        1.8        1.8        1.8        1.8        1.8        1.8       
 50.E-12    0.9        50.751E-6  1.8        1.8        1.8        1.8        1.8        1.8        1.8        1.7999    
 100.E-12   1.8        47.604E-6  1.8        1.8        1.8        1.8        1.8        1.8        1.8        1.7999    
 150.E-12   1.8       -75.853E-6  1.7999     1.7999     1.8        1.7999     1.7999     1.8        1.8        1.8001    
 200.E-12   1.8       -56.997E-6  1.7999     1.8        1.8        1.8        1.7999     1.8        1.8        1.8001    
 250.E-12   1.8        68.403E-6  1.7996     1.8001     1.8        1.8001     1.8001     1.8        1.8001     1.7999    
 300.E-12   1.8       -56.864E-6  1.7998     1.7999     1.8        1.8        1.7999     1.8        1.8        1.8001    
 350.E-12   1.8        64.288E-6  1.8059     1.8001     1.8        1.8001     1.8001     1.8        1.8        1.8       
 400.E-12   1.8       -54.728E-6  1.8164     1.8        1.8        1.7999     1.7999     1.8        1.7999     1.8001    
 450.E-12   1.8        46.386E-6  1.2393     1.7998     1.8        1.8001     1.8001     1.8        1.8001     1.8       
 500.E-12   1.8       -46.635E-6  0.18876    1.7998     1.8        1.7999     1.7999     1.8        1.7999     1.8001    
 550.E-12   1.8        45.629E-6 -0.068363   1.8009     1.8        1.8001     1.8001     1.8        1.8001     1.8       
 600.E-12   1.8       -46.376E-6  0.03457    1.8122     1.8        1.7999     1.7999     1.8        1.7999     1.8001    
 650.E-12   1.8        46.797E-6 -0.017455   1.7431     1.8        1.8001     1.8001     1.8        1.8001     1.8       
 700.E-12   1.8        44.99E-6  -876.41E-6  0.84553    1.8        1.8001     1.8001     1.8        1.8001     1.7999    
 750.E-12   1.8        46.071E-6 -159.58E-6 -0.014175   1.8        1.8001     1.8001     1.8        1.8001     1.7999    
 800.E-12   1.8        41.786E-6 -23.106E-6 -725.7E-6   1.8        1.8001     1.8001     1.8        1.8001     1.7999    
 850.E-12   1.8       -65.874E-6 -3.4359E-6  601.47E-6  1.8        1.7999     1.7999     1.8        1.7999     1.8001    
 900.E-12   1.8        19.752E-6  13.685E-6 -335.66E-6  1.7999     1.8001     1.8001     1.8        1.8001     1.8001    
 950.E-12   1.8       -52.368E-6 -27.015E-6  258.8E-6   1.7999     1.7999     1.7999     1.8        1.7999     1.8       
 1.E-9      1.8        31.907E-6  35.576E-6 -162.4E-6   1.8003     1.8001     1.8001     1.8        1.8001     1.8       
 1.05E-9    1.8       -33.864E-6 -42.491E-6  122.25E-6  1.8056     1.7999     1.7999     1.8        1.7999     1.8       
 1.1E-9     1.8        36.47E-6   47.842E-6 -89.077E-6  1.7815     1.8001     1.8001     1.8        1.8001     1.8       
 1.15E-9    1.8        36.223E-6  49.275E-6 -32.852E-6  1.4909     1.8001     1.8001     1.8        1.8001     1.8       
 1.2E-9     1.8       -1.4114E-6  52.478E-6 -16.552E-6  0.9099     1.8001     1.8001     1.8        1.8001     1.7999    
 1.25E-9    1.8        22.481E-6  57.262E-6 -7.7858E-6  0.33692    1.8001     1.8002     1.8001     1.8001     1.7999    
 1.3E-9     1.8       -19.611E-6 -79.656E-6  5.821E-6   0.051793   1.7996     1.7998     1.7999     1.7998     1.8001    
 1.35E-9    1.8        36.829E-6  75.828E-6 -3.7128E-6  0.0031928  1.7996     1.8002     1.8001     1.8        1.8001    
 1.4E-9     1.8       -26.004E-6 -81.848E-6  2.5717E-6  145.58E-6  1.8041     1.7999     1.7999     1.8        1.8       
 1.45E-9    1.8        28.382E-6  82.96E-6   141.95E-9  4.591E-6   1.8217     1.7999     1.8001     1.8001     1.8       
 1.5E-9     1.8        43.666E-9 -85.494E-6 -1.749E-6   8.9573E-6  1.4258     1.7999     1.7999     1.7999     1.8       
 1.55E-9    1.8        33.079E-6  86.473E-6  3.198E-6   2.2491E-6  0.40734    1.7998     1.8001     1.8001     1.8001    
 1.6E-9     1.8       -28.451E-6 -87.634E-6 -3.762E-6   2.4775E-6 -0.060213   1.8002     1.7999     1.8        1.8001    
 1.65E-9    1.8        27.447E-6  88.573E-6  4.8893E-6  1.4729E-6  0.023872   1.8017     1.8001     1.8001     1.8       
 1.7E-9     1.8       -37.815E-6 -89.459E-6 -5.512E-6   1.3161E-6 -0.0094925  1.806      1.7999     1.7999     1.8       
 1.75E-9    1.8       -49.658E-6 -79.058E-6 -6.5382E-6  38.518E-9 -52.628E-6  1.8196     1.7999     1.7999     1.7999    
 1.8E-9     1.8        63.791E-6 -80.037E-6 -7.8132E-6 -613.65E-9 -35.064E-6  1.5978     1.7999     1.7999     1.8       
 1.85E-9    1.8        663.15E-6 -86.445E-6 -9.2079E-6 -922.78E-9 -42.642E-6  0.48151    1.7998     1.7997     1.7999    
 1.9E-9     1.8       -0.0036932  119.79E-6  13.759E-6  2.5245E-6  79.216E-6 -0.056766   1.7996     1.7996     1.7998    
 1.95E-9    1.8       -0.013188  -119.16E-6 -12.693E-6 -969.11E-9 -69.803E-6  0.030142   1.8032     1.8021     1.8003    
 2.E-9      1.8        0.263      122.39E-6  11.848E-6  1.3111E-6  79.175E-6 -0.015285   1.8258     1.8235     1.806     
 2.05E-9    1.8        0.92915   -112.16E-6 -11.139E-6 -1.076E-6  -79.297E-6  0.0079445  1.4557     1.5249     1.7937    
 2.1E-9     1.8        1.497     -93.657E-6 -8.9792E-6 -1.1656E-6 -74.219E-6  429.14E-6  0.26167    0.33942    1.4485    
 2.15E-9    1.8        1.7236    -110.88E-6 -8.6822E-6 -764.18E-9 -77.736E-6  146.14E-6  0.0052874  0.0039451  0.63573   
 2.2E-9     1.8        1.7841    -84.764E-6 -9.7012E-6 -882.03E-9 -83.341E-6  60.763E-6  283.41E-6  222.89E-6  0.071812  
 2.25E-9    1.8        1.7976     134.31E-6  12.895E-6  2.083E-6   125.65E-6 -24.62E-6  -87.771E-6 -57.287E-6 -0.0086905 
 2.3E-9     1.8        1.7997    -124.45E-6 -10.436E-6 -885.81E-9 -119.35E-6  29.912E-6  147.15E-6  119.19E-6  0.0015576 
 2.35E-9    1.8        1.7999     115.31E-6  9.1158E-6  1.047E-6   117.41E-6 -7.2586E-6 -71.017E-6 -50.677E-6 -277.71E-6 
 2.4E-9     1.8        1.8       -103.56E-6 -8.7703E-6 -1.1208E-6 -99.493E-6  1.646E-6   64.812E-6  39.782E-6  113.59E-6 
 2.45E-9    1.8        1.8        109.73E-6  8.3676E-6  1.1236E-6  99.421E-6  1.0429E-6 -40.655E-6 -14.786E-6 -45.404E-6 
 2.5E-9     1.8        1.8       -105.09E-6 -7.882E-6  -1.0127E-6 -96.176E-6  556.68E-9  36.546E-6  5.8678E-6  41.456E-6 
 2.55E-9    1.8        1.8        103.84E-6  7.2379E-6  1.2029E-6  97.519E-6  9.2403E-6 -22.002E-6  9.684E-6  -27.47E-6  
 2.6E-9     1.8        1.8       -106.36E-6 -6.1221E-6 -1.1707E-6 -98.287E-6 -12.903E-6  15.684E-6 -18.275E-6  32.506E-6 
 2.65E-9    0.9        1.8        92.967E-6  5.7186E-6  1.1628E-6  108.85E-6  21.571E-6 -8.0053E-6  27.06E-6  -32.232E-6 
 2.7E-9    -2.196E-9   1.8       -85.839E-6 -5.4682E-6 -1.2199E-6 -101.72E-6 -26.571E-6  1.9118E-6 -34.17E-6   35.295E-6 
 2.75E-9    414.4E-12  1.8        86.365E-6  4.7782E-6  1.3358E-6  88.637E-6  33.544E-6  4.4335E-6  41.148E-6 -36.052E-6 
 2.8E-9     241.4E-12  1.8001     62.774E-6  7.4057E-6  3.6939E-6  142.61E-6  80.731E-6  51.287E-6  106.78E-6 -84.064E-6 
 2.85E-9   -3.9014E-9  1.8        389.4E-6   2.2315E-6 -236.59E-9 -12.448E-6 -43.376E-6 -21.503E-6 -46.886E-6  8.1573E-6 
 2.9E-9    -4.4349E-9  1.8001     253.47E-6 -2.1889E-6  1.2573E-6 -100.75E-6 -88.781E-6 -50.829E-6 -103.08E-6  35.997E-6 
 2.95E-9   -3.0239E-9  1.8       -0.0025823 -12.86E-6  -1.9996E-6 -85.7E-6   -101.26E-6 -54.017E-6 -110.65E-6  49.464E-6 
 3.E-9     -3.4917E-9  1.7999    -0.012186   20.903E-6 -1.2035E-6 -99.057E-6 -106.05E-6 -53.113E-6 -112.62E-6  47.372E-6 
 3.05E-9   -2.4285E-9  1.8001     0.048917   253.11E-6  3.6807E-6  125.56E-6  148.17E-6  74.952E-6  158.93E-6 -81.2E-6   
 3.1E-9    -3.6635E-9  1.8001     0.84832    189.89E-6  2.9414E-6  107.55E-6  124.64E-6  57.398E-6  125.52E-6 -61.641E-6 
 3.15E-9   -747.9E-12  1.8        1.7067    -0.0017806  1.419E-6   92.22E-6   120.59E-6  55.448E-6  123.25E-6 -56.69E-6  
 3.2E-9    -295.E-12   1.8        1.799     -0.0083794  1.7623E-6  74.426E-6  124.14E-6  56.391E-6  127.09E-6 -56.859E-6 
 3.25E-9   -3.215E-9   1.7999     1.8002    -0.0030179 -4.2809E-6 -129.53E-6 -170.53E-6 -78.803E-6 -176.22E-6  100.03E-6 
 3.3E-9    -4.2892E-9  1.7999     1.8        0.48464   -3.5065E-6 -100.73E-6 -147.57E-6 -61.01E-6  -143.21E-6  77.426E-6 
 3.35E-9   -614.6E-12  1.8001     1.8        1.4848    -240.5E-9   119.69E-6  185.09E-6  80.988E-6  186.54E-6 -77.057E-6 
 3.4E-9    -2.0329E-9  1.8001     1.7999     1.8428    -9.9571E-6 -110.86E-6 -187.53E-6 -73.952E-6 -174.34E-6 -5.5646E-6 
 3.45E-9   -114.1E-12  1.8        1.8        1.788     -971.85E-9  122.36E-6  186.6E-6   73.864E-6  79.345E-6 -47.756E-6 
 3.5E-9    -4.2845E-9  1.8        1.8        1.8034     164.89E-6 -114.7E-6  -168.15E-6 -72.942E-6 -114.8E-6   39.347E-6 
 3.55E-9   -2.6367E-9  1.8001     1.8        1.7988     271.21E-6  110.12E-6  166.12E-6  72.352E-6  118.38E-6 -50.065E-6 
 3.6E-9    -4.3759E-9  1.8        1.8        1.8004    -0.0010729 -98.123E-6 -162.63E-6 -71.453E-6 -128.6E-6   51.728E-6 
 3.65E-9   -656.7E-12  1.8001     1.8        1.7999    -0.0071343  100.35E-6  163.44E-6  70.685E-6  134.48E-6 -56.036E-6 
 3.7E-9    -4.1688E-9  1.8        1.7999     1.7999     0.0081657 -106.06E-6 -170.37E-6 -70.132E-6 -140.07E-6  62.872E-6 
 3.75E-9   -2.5132E-9  1.8        1.8001     1.8001     0.22639    101.14E-6  166.4E-6   70.374E-6  144.97E-6 -59.332E-6 
 3.8E-9    -1.9515E-9  1.8001     1.8001     1.8001     0.69396    75.994E-6  143.67E-6  60.182E-6  134.47E-6 -55.355E-6 
 3.85E-9   -4.8763E-9  1.8        1.7999     1.7999     1.1418    -109.55E-6 -177.53E-6 -84.102E-6 -185.76E-6  89.325E-6 
 3.9E-9    -2.3959E-9  1.8        1.8001     1.8001     1.4748     481.35E-6  165.56E-6  77.876E-6  80.565E-6  4.7938E-6 
 3.95E-9   -5.6083E-9  1.7999     1.7999     1.7999     1.6629     152.11E-6 -150.19E-6 -77.941E-6 -122.48E-6  58.544E-6 
 4.E-9     -3.0997E-9  1.8001     1.8001     1.8001     1.7474    -0.0039639  261.42E-6  77.216E-6  127.2E-6  -41.399E-6 
 4.05E-9   -7.5164E-9  1.8        1.7999     1.7999     1.7824    -0.015856   74.753E-6 -77.189E-6 -140.9E-6   45.826E-6 
 4.1E-9    -5.1158E-9  1.8        1.8001     1.8001     1.794      0.15859    39.848E-6  76.667E-6  148.18E-6 -53.794E-6 
 4.15E-9   -3.569E-9   1.8001     1.8001     1.8001     1.7977     0.95786    96.659E-6  67.48E-6   144.63E-6 -45.94E-6  
 4.2E-9    -2.7357E-9  1.8        1.8001     1.8001     1.799      1.6554    -674.36E-6  68.368E-6  156.8E-6  -47.891E-6 
 4.25E-9   -2.6878E-9  1.8        1.8002     1.8001     1.7995     1.7873    -0.0022076  72.404E-6  22.357E-6 -61.779E-6 
 4.3E-9    -2.252E-9   1.7999     1.8        1.8001     1.7998     1.799     -0.0047172  60.923E-6  119.05E-6 -50.725E-6 
 4.35E-9   -5.3789E-9  1.7997     1.7998     1.7999     1.7999     1.8001    -0.010766  -115.4E-6  -204.47E-6  82.725E-6 
 4.4E-9    -4.3389E-9  1.7994     1.8002     1.8001     1.8        1.7998     0.046736   222.04E-6  229.59E-6 -19.119E-6 
 4.45E-9   -10.261E-9  1.802      1.8001     1.7999     1.8        1.8        0.61408    327.28E-6  269.88E-6  202.38E-6 
 4.5E-9    -5.9206E-9  1.8188     1.8001     1.8001     1.8        1.8        1.4992    -418.52E-6  10.347E-6  231.77E-6 
 4.55E-9   -6.4299E-9  1.5411     1.7999     1.7999     1.8        1.8        1.8296    -0.0050948 -0.0049895 -0.0019825 
 4.6E-9    -2.128E-9   0.77359    1.8002     1.8001     1.8        1.8        1.7927    -0.017084  -0.018052  -0.0087414 
 4.65E-9   -6.7037E-9  0.12992    1.8        1.7999     1.8        1.8        1.8018     0.27478    0.31253    0.013114  
 4.7E-9    -7.5246E-9  0.0050366  1.7999     1.7999     1.8        1.8        1.7999     1.2921     1.354      0.34301   
 4.75E-9   -806.9E-12 -754.7E-6   1.8        1.8002     1.8        1.8001     1.8001     1.8132     1.8214     0.99769   
 4.8E-9    -3.405E-9   158.31E-6  1.8        1.7999     1.8        1.7999     1.7999     1.7958     1.7943     1.5143    
 4.85E-9    1.2447E-9 -102.17E-6  1.8001     1.8002     1.8        1.8001     1.8        1.801      1.8014     1.7322    
 4.9E-9    -2.1905E-9  25.797E-6  1.8        1.7998     1.8        1.7999     1.7999     1.7996     1.7996     1.7878    
 4.95E-9    1.7677E-9 -2.0694E-6  1.8        1.8        1.8        1.8001     1.8001     1.8        1.8        1.7985    
 5.E-9     -2.011E-9  -18.68E-6   1.7999     1.7999     1.8        1.7999     1.7999     1.8        1.8        1.7998    
 5.05E-9    0.9        31.224E-6  1.8001     1.8001     1.8        1.8        1.8001     1.7999     1.8        1.7999    
 5.1E-9     1.8       -41.681E-6  1.8        1.7999     1.8        1.7999     1.7999     1.8        1.8        1.7999    
 5.15E-9    1.8        50.014E-6  1.8        1.8001     1.8        1.8001     1.8001     1.8        1.8        1.8       
 5.2E-9     1.8       -57.056E-6  1.7999     1.8        1.8        1.8        1.7999     1.8        1.8        1.8       
 5.25E-9    1.8       -10.752E-6  1.7996     1.8001     1.8        1.8001     1.8001     1.8        1.8        1.8       
 5.3E-9     1.8       -61.988E-6  1.7997     1.7999     1.8        1.7999     1.7999     1.8        1.7999     1.8       
 5.35E-9    1.8        95.21E-6   1.8073     1.7999     1.8        1.8001     1.8001     1.8001     1.8002     1.8001    
 5.4E-9     1.8       -35.565E-6  1.8187     1.7999     1.8        1.7998     1.7998     1.7999     1.8001     1.8       
 5.45E-9    1.8       -72.877E-6  1.0948     1.7999     1.8        1.8002     1.8        1.7999     1.7999     1.7999    
 5.5E-9     1.8        72.841E-6  0.030196   1.7995     1.8        1.8        1.8002     1.8002     1.8001     1.7999    
 5.55E-9    1.8       -61.64E-6   501.14E-6  1.8014     1.8        1.8        1.8        1.8        1.7999     1.8       
 5.6E-9     1.8       -13.84E-6  -6.998E-6   1.816      1.8        1.8001     1.7999     1.8001     1.8001     1.7999    
 5.65E-9    1.8       -133.5E-6   41.27E-6   1.6872     1.7999     1.7998     1.7998     1.7997     1.7997     1.8       
 5.7E-9     1.8       -29.161E-6 -30.064E-6  0.64428    1.7999     1.8        1.8        1.8        1.8        1.8001    
 5.75E-9    1.8        61.647E-6  73.64E-6  -0.033365   1.8        1.8001     1.8001     1.8001     1.8001     1.7999    
 5.8E-9     1.8       -17.874E-6 -63.327E-6  0.019335   1.8        1.7999     1.8        1.7999     1.8        1.7999    
 5.85E-9    1.8        21.429E-6  76.524E-6 -0.01036    1.8        1.8        1.8        1.8        1.8        1.8       
 5.9E-9     1.8       -39.158E-6 -78.245E-6  0.0055997  1.7998     1.8        1.7999     1.8        1.7999     1.8       
 5.95E-9    1.8        46.9E-6    87.259E-6 -0.0030204  1.7998     1.8001     1.8        1.8001     1.8001     1.8       
 6.E-9      1.8       -19.343E-6 -92.291E-6  0.0016512  1.8006     1.8        1.8001     1.7999     1.8        1.7999    
 6.05E-9    1.8       -39.746E-6 -95.715E-6  284.79E-6  1.8067     1.7999     1.8001     1.7999     1.7999     1.8001    
 6.1E-9     1.8       -13.44E-6  -112.85E-6  55.453E-6  1.7803     1.8        1.8001     1.8001     1.8001     1.7999    
 6.15E-9    1.8       -108.64E-9 -129.35E-6 -15.539E-6  1.4068     1.8001     1.7999     1.7999     1.7999     1.8001    
 6.2E-9     1.8        35.361E-6  187.7E-6   46.627E-6  0.81551    1.8        1.8        1.8        1.8        1.8       
 6.25E-9    1.8       -40.363E-6 -176.09E-6 -48.206E-6  0.28783    1.7999     1.8        1.8001     1.8        1.8       
 6.3E-9     1.8        17.496E-6  39.361E-6  55.994E-6  0.039127   1.7995     1.8001     1.8001     1.8001     1.7999    
 6.35E-9    1.8        37.386E-6  100.79E-6  57.902E-6  0.0056028  1.7998     1.8001     1.7999     1.8        1.8001    
 6.4E-9     1.8       -6.1638E-6 -128.17E-6 -64.447E-6  959.11E-6  1.8071     1.7998     1.8001     1.8001     1.8001    
 6.45E-9    1.8        31.693E-6  66.151E-6  79.572E-6  230.24E-6  1.8129     1.8        1.8002     1.7999     1.8       
 6.5E-9     1.8       -1.1029E-6  79.039E-6  96.115E-6  66.172E-6  1.1925     1.8        1.7999     1.7999     1.8001    
 6.55E-9    1.8        25.745E-6  125.12E-6  97.682E-6  28.209E-6  0.13772    1.7999     1.7999     1.8001     1.8       
 6.6E-9     1.8        4.1828E-6  132.78E-6  99.186E-6  16.259E-6  0.0013713  1.8004     1.8001     1.7999     1.8       
 6.65E-9    1.8       -16.575E-6  86.52E-6   102.51E-6  13.091E-6  52.433E-6  1.8021     1.7999     1.7999     1.8001    
 6.7E-9     1.8        47.606E-6  129.72E-6  106.73E-6  12.058E-6  39.474E-6  1.8073     1.8001     1.8001     1.8       
 6.75E-9    1.8       -108.98E-6 -138.85E-6 -146.57E-6 -23.206E-6  15.133E-6  1.8146     1.8        1.7998     1.8       
 6.8E-9     1.8        153.92E-6  97.266E-6  134.95E-6  12.705E-6  27.72E-6   1.4443     1.7999     1.8        1.8       
 6.85E-9    1.8        596.1E-6  -79.494E-6 -137.76E-6 -14.611E-6 -11.87E-6   0.38063    1.7997     1.7997     1.7999    
 6.9E-9     1.8       -0.0053659  127.37E-6  98.97E-6   11.357E-6  59.378E-6  0.0042571  1.7994     1.7993     1.7996    
 6.95E-9    1.8       -0.018162   36.64E-6   120.47E-6  12.246E-6  103.9E-6   377.6E-6   1.8044     1.8029     1.8005    
 7.E-9      1.8        0.36238    29.437E-6  138.77E-6  13.316E-6  104.68E-6  188.71E-6  1.8305     1.8279     1.8083    
 7.05E-9    1.8        1.0817     73.885E-6  189.51E-6  11.623E-6  65.894E-6  179.83E-6  1.3975     1.4849     1.7899    
 7.1E-9     1.8        1.5676     83.943E-6  123.83E-6  16.983E-6  79.56E-6   152.28E-6  0.16164    0.22895    1.3165    
 7.15E-9    1.8        1.7522    -86.348E-6 -173.17E-6 -42.606E-6 -164.14E-6 -109.44E-6 -0.056148  -0.072678   0.50625   
 7.2E-9     1.8        1.7923     64.458E-6  171.93E-6  21.152E-6  94.252E-6  157.08E-6  0.028335   0.036629   0.034008  
 7.25E-9    1.8        1.7993    -45.894E-6 -87.376E-6 -27.961E-6 -73.005E-6 -120.98E-6 -0.01427   -0.018364  -0.0042036 
 7.3E-9     1.8        1.7999     85.173E-6  124.52E-6  24.996E-6  84.557E-6  139.57E-6  0.0073685  0.0094637  715.16E-6 
 7.35E-9    1.8        1.7999    -60.783E-6 -132.03E-6 -26.025E-6 -88.568E-6 -131.22E-6 -0.003792  -0.0048563 -151.04E-6 
 7.4E-9     1.8        1.8        42.476E-6  145.27E-6  24.911E-6  106.67E-6  122.57E-6  0.0019532  0.0025018  64.185E-6 
 7.45E-9    1.8        1.8       -82.324E-6 -154.2E-6  -25.118E-6 -116.62E-6 -110.28E-6 -0.0010093 -0.0012902 -15.294E-6 
 7.5E-9     1.8        1.8        58.714E-6  162.55E-6  24.693E-6  111.78E-6  118.35E-6  528.48E-6  671.74E-6  5.4845E-6 
 7.55E-9    1.8        1.8       -90.311E-6 -169.33E-6 -24.843E-6 -69.492E-6 -117.42E-6 -367.83E-6 -455.91E-6  12.874E-6 
 7.6E-9     1.8        1.8        58.619E-6  176.2E-6   25.037E-6  100.22E-6  125.8E-6   250.54E-6  311.E-6   -17.014E-6 
 7.65E-9    0.9        1.7999    -54.989E-6 -182.02E-6 -24.789E-6 -95.344E-6 -129.39E-6 -183.56E-6 -230.95E-6  26.774E-6 
 7.7E-9     2.5259E-9  1.8001     81.835E-6  187.69E-6  25.306E-6  106.13E-6  136.86E-6  141.87E-6  182.54E-6 -32.16E-6  
 7.75E-9   -4.3054E-9  1.8       -106.82E-6 -96.969E-6 -29.662E-6 -68.34E-6  -141.71E-6 -118.55E-6 -156.35E-6  37.782E-6 
 7.8E-9     2.6446E-9  1.8002     16.814E-6 -148.08E-6  19.542E-6  87.783E-6  157.55E-6  97.028E-6  141.32E-6 -35.445E-6 
 7.85E-9   -6.3028E-9  1.8        421.45E-6 -72.673E-6 -38.727E-6 -62.068E-6 -95.384E-6 -148.93E-6 -148.2E-6   68.742E-6 
 7.9E-9    -6.8579E-9  1.8        313.71E-6 -135.33E-6 -52.076E-6 -152.09E-6 -230.98E-6 -226.08E-6 -197.15E-6  68.333E-6 
 7.95E-9   -5.4141E-9  1.8       -0.0025068 -116.05E-6  1.4173E-6 -11.689E-6 -38.101E-6 -122.34E-6 -60.779E-6 -19.679E-6 
 8.E-9     -5.8197E-9  1.8001    -0.012212  -61.867E-6 -20.447E-6 -23.705E-6 -129.9E-6  -161.44E-6 -119.44E-6  26.726E-6 
 8.05E-9   -7.574E-9   1.7999     0.031647   331.82E-6 -7.5849E-6 -64.513E-6 -58.313E-6  43.502E-6 -127.61E-6  49.318E-6 
