#Time       v(a0)      v(cout)    v(sum0)    v(sum1)    v(sum2)    v(sum3)    v(sum4)    v(sum5)    v(sum6)    v(sum7)   
 0.        -79.E-15    10.552E-9  1.8        1.8        1.8        1.8        1.8        1.8        1.8        1.8       
 100.E-12   1.8        13.468E-6  1.8        1.8        1.8002     1.8        1.8001     1.8        1.8        1.8       
 200.E-12   1.8        35.071E-6  1.7999     1.8        1.8        1.8        1.7999     1.8        1.8        1.8       
 300.E-12   1.8        33.926E-6  1.8008     1.8        1.8        1.8        1.7999     1.8        1.7999     1.8       
 400.E-12   1.8        38.997E-6  1.6282     1.7999     1.8        1.8        1.8        1.7999     1.7999     1.8       
 500.E-12   1.8        39.669E-6  0.0015664  1.8002     1.8        1.8        1.8001     1.8        1.8        1.8       
 600.E-12   1.8       -29.469E-6  88.691E-6  1.7996     1.8        1.8001     1.8001     1.8001     1.8001     1.8       
 700.E-12   1.8        6.939E-6   13.993E-6 -0.026524   1.8        1.7999     1.7999     1.7999     1.7999     1.8       
 800.E-12   1.8        29.877E-6  9.7067E-6 -0.0093129  1.8        1.7999     1.8        1.7999     1.7999     1.8       
 900.E-12   1.8        31.606E-6  4.2447E-6 -0.0027245  1.7998     1.7999     1.7999     1.7999     1.7999     1.8       
 1.E-9      1.8       -54.585E-6 -411.88E-9  0.0020193  1.7805     1.8002     1.8001     1.8002     1.8002     1.8       
 1.1E-9     1.8        24.881E-6 -214.36E-9 -0.001498   1.1959     1.8        1.8        1.7998     1.7998     1.8       
 1.2E-9     1.8       -35.515E-6  2.7624E-6  0.0011158  0.24219    1.7999     1.8        1.8001     1.8001     1.8       
 1.3E-9     1.8        32.091E-6 -4.4258E-6 -912.64E-6 -0.050538   1.8004     1.7999     1.7999     1.7999     1.8       
 1.4E-9     1.8       -33.976E-6  6.3163E-6  740.99E-6  0.015283   1.5937     1.7999     1.8001     1.8001     1.8       
 1.5E-9     1.8        21.354E-6 -9.2409E-6 -154.76E-6  146.14E-6  0.03056    1.8005     1.7999     1.7999     1.8       
 1.6E-9     1.8       -20.133E-6  15.224E-6  72.32E-6   27.634E-6 -239.21E-6  1.8106     1.8        1.8001     1.8       
 1.7E-9     1.8        467.85E-6  19.988E-6  59.502E-6  21.521E-6 -86.802E-6  1.1987     1.7998     1.7998     1.7999    
 1.8E-9     1.8       -0.017639   23.839E-6  47.02E-6   26.237E-6 -5.1886E-6 -0.064242   1.8035     1.8022     1.8003    
 1.9E-9     1.8        0.80644    25.75E-6   38.103E-6  30.007E-6  19.523E-6 -0.01643    1.3922     1.4495     1.7833    
 2.E-9      1.8        1.6996    -23.106E-6 -23.376E-6 -36.444E-6 -30.018E-6  472.37E-6  0.0053217  0.0042773  0.60807   
 2.1E-9     1.8        1.7956    -25.676E-6 -17.365E-6  42.594E-6 -37.892E-6  28.93E-6   155.98E-6  144.8E-6   0.0028825 
 2.2E-9     1.8        1.7999    -32.791E-6 -19.81E-6  -30.687E-6 -49.504E-6 -10.154E-6  53.897E-6  36.984E-6  55.491E-6 
 2.3E-9     1.8        1.8       -37.742E-6 -17.104E-6 -26.075E-6 -44.114E-6 -48.211E-6 -2.2255E-6 -15.297E-6  13.48E-6  
 2.4E-9     1.8        1.7999     46.704E-6  19.982E-6  60.636E-6  57.343E-6  68.903E-6  27.983E-6  40.542E-6 -2.2546E-6 
 2.5E-9     1.8        1.8       -45.892E-6 -18.805E-6 -591.17E-9 -52.461E-6 -67.723E-6 -32.938E-6 -41.223E-6  1.7786E-6 
 2.6E-9     1.8        1.8        47.981E-6  18.04E-6   23.972E-6  49.791E-6  74.587E-6  39.874E-6  45.628E-6  1.1637E-6 
 2.7E-9    -374.3E-12  1.8       -49.462E-6 -17.267E-6 -26.882E-6 -47.671E-6 -78.739E-6 -44.762E-6 -48.223E-6 -1.0412E-6 
 2.8E-9    -1.7603E-9  1.7998     60.262E-6  31.368E-6  118.95E-6  112.36E-6  238.64E-6  145.94E-6  134.35E-6 -434.72E-9 
 2.9E-9    -2.3059E-9  1.7999     290.76E-6  6.6706E-6  19.767E-6  40.157E-6  76.454E-6  88.564E-6  79.596E-6 -371.41E-9 
 3.E-9     -844.7E-12  1.8       -0.0023845 -26.368E-6 -42.692E-6 -43.028E-6 -32.587E-6 -118.87E-6 -106.44E-6 -1.2409E-6 
 3.1E-9    -2.9881E-9  1.7999    -0.012828   132.2E-6   27.008E-6  38.717E-6  129.81E-6  117.7E-6   104.87E-6  1.2937E-6 
 3.2E-9    -2.4975E-9  1.8001     0.96721   -274.18E-6 -28.24E-6  -36.644E-6 -36.599E-6 -120.8E-6  -109.E-6   -1.5307E-6 
 3.3E-9    -1.6109E-9  1.7999     1.7993    -0.0048888  28.109E-6  36.336E-6  141.06E-6  125.11E-6  114.43E-6  1.4615E-6 
 3.4E-9    -1.4739E-9  1.8001     1.7999     0.042336  -29.835E-6 -34.439E-6 -159.5E-6  -130.7E-6  -120.46E-6 -1.7511E-6 
 3.5E-9    -1.3482E-9  1.7999     1.7999     1.5472    -27.833E-6 -38.899E-6 -119.94E-6 -151.05E-6 -139.89E-6 -2.3569E-6 
 3.6E-9    -1.5558E-9  1.8        1.7999     1.791      22.283E-6 -32.82E-6  -143.52E-6 -153.93E-6 -142.3E-6  -2.995E-6  
 3.7E-9    -2.7612E-9  1.8        1.8        1.7992     120.68E-6 -30.49E-6  -155.43E-6 -155.05E-6 -144.14E-6 -2.8329E-6 
 3.8E-9    -1.6946E-9  1.7999     1.8        1.8004    -0.0015403  40.814E-6  197.64E-6  190.13E-6  176.84E-6  4.2251E-6 
 3.9E-9    -1.5677E-9  1.8        1.8        1.7997    -0.0042946 -36.484E-6 -186.98E-6 -127.81E-6 -170.83E-6 -3.6528E-6 
 4.E-9     -3.189E-9   1.8        1.8        1.8001     0.38694    30.291E-6  131.71E-6  87.11E-6   117.17E-6  3.6701E-6 
 4.1E-9    -2.793E-9   1.8        1.8        1.7999     1.2008    -1.3545E-6 -143.87E-6 -100.79E-6 -128.83E-6 -3.7136E-6 
 4.2E-9    -3.04E-9    1.7999     1.8        1.8        1.7004     171.4E-6   152.65E-6  107.01E-6  131.18E-6  3.8689E-6 
 4.3E-9    -3.4841E-9  1.8        1.8        1.8        1.7934    -0.0011352 -79.486E-6 -113.54E-6 -134.79E-6 -3.7916E-6 
 4.4E-9    -4.0688E-9  1.8        1.8        1.8        1.8008    -0.0095544  73.87E-6   119.14E-6  137.85E-6  3.821E-6  
 4.5E-9    -3.5702E-9  1.8        1.8        1.8        1.7993     0.6194    -7.6865E-6 -124.27E-6 -140.44E-6 -3.7627E-6 
 4.6E-9    -3.4315E-9  1.8        1.8        1.8        1.8004     1.6365    -490.93E-6  128.67E-6  142.51E-6  3.3127E-6 
 4.7E-9    -2.5502E-9  1.7998     1.8        1.8        1.8001     1.7975    -0.001943   120.61E-6  129.18E-6 -2.7374E-6 
 4.8E-9    -4.7029E-9  1.8005     1.8        1.8        1.7999     1.7996    -0.0052759  255.87E-6  337.95E-6  130.22E-6 
 4.9E-9    -5.3553E-9  1.7132     1.8        1.8        1.8        1.7999     0.055164  -91.547E-6 -65.128E-6  73.818E-6 
 5.E-9     -3.7218E-9  0.36259    1.8        1.8        1.8        1.8        1.3346    -0.0034591 -0.0042459 -0.001483  
 5.1E-9     1.8        0.0027337  1.8        1.8        1.8        1.8001     1.799      415.77E-6  0.029962  -0.0088329 
 5.2E-9     1.8        94.07E-6   1.7999     1.8        1.8        1.8001     1.7997     1.2208     1.4699     0.27368   
 5.3E-9     1.8       -112.49E-6  1.801      1.8        1.7999     1.8002     1.8        1.8021     1.8005     1.438     
 5.4E-9     1.8        48.919E-6  1.6643     1.7997     1.8        1.7998     1.7998     1.7999     1.7998     1.7761    
 5.5E-9     1.8       -37.474E-6  0.0033446  1.8003     1.8        1.8        1.8001     1.8001     1.8001     1.7984    
 5.6E-9     1.8        54.878E-6  199.05E-6  1.7775     1.8        1.7999     1.7999     1.8        1.8001     1.7998    
 5.7E-9     1.8       -22.387E-6 -44.722E-6 -0.039145   1.8        1.8        1.8001     1.7999     1.7999     1.7999    
 5.8E-9     1.8       -15.558E-6 -27.974E-6 -0.0125     1.7999     1.7999     1.8        1.8        1.8001     1.8       
 5.9E-9     1.8       -39.148E-6 -12.253E-6 -0.0036373  1.7998     1.8        1.8001     1.8        1.8001     1.8       
 6.E-9      1.8       -12.372E-6 -1.6493E-6 -0.0010826  1.8055     1.7999     1.8        1.8001     1.8        1.8       
 6.1E-9     1.8       -49.335E-6  5.7179E-6 -452.63E-6  1.0738     1.8        1.8001     1.8        1.8001     1.8       
 6.2E-9     1.8       -46.052E-6  11.014E-6 -216.55E-6  0.10214    1.7995     1.8        1.8001     1.7999     1.8       
 6.3E-9     1.8       -13.321E-6  15.127E-6 -112.05E-6  347.57E-6  1.8106     1.7999     1.8        1.7999     1.8       
 6.4E-9     1.8       -7.5975E-6 -17.289E-6  17.306E-6  239.48E-9  0.99441    1.7999     1.8002     1.8002     1.8       
 6.5E-9     1.8       -40.811E-6  41.797E-6 -22.486E-6  49.661E-6 -781.05E-6  1.8015     1.8002     1.8002     1.8       
 6.6E-9     1.8        27.974E-6 -45.126E-6  20.076E-6  2.9009E-6  91.972E-6  1.821      1.7999     1.7999     1.8       
 6.7E-9     1.8        657.26E-6  49.513E-6 -19.88E-6   45.675E-6  54.471E-6  0.53212    1.7995     1.7994     1.7998    
 6.8E-9     1.8       -0.010745   54.658E-6 -19.986E-6 -22.412E-6  54.955E-6  489.27E-6  1.8115     1.8081     1.8014    
 6.9E-9     1.8        1.1379    -84.596E-6  27.746E-6 -9.1341E-6 -56.741E-6  119.44E-6  0.80777    0.96803    1.6846    
 7.E-9      1.8        1.7527     111.92E-6 -35.149E-6 -8.4102E-6  55.861E-6  100.28E-6  0.0092652  0.013436   0.25118   
 7.1E-9     1.8        1.7996     121.35E-6 -40.327E-6  24.195E-6  59.088E-6  111.44E-6  0.0023714  0.0034551  0.0027505 
 7.2E-9     1.8        1.7999     107.92E-6 -42.204E-6  23.367E-6  52.519E-6  112.8E-6   609.42E-6  900.61E-6  182.38E-6 
 7.3E-9     1.8        1.8       -134.78E-6  51.338E-6 -18.019E-6 -68.688E-6 -137.21E-6 -469.42E-6 -651.07E-6 -108.36E-6 
 7.4E-9     1.8        1.8        130.79E-6 -50.054E-6  5.5481E-6  62.679E-6  132.8E-6   391.63E-6  536.72E-6  71.457E-6 
 7.5E-9     1.8        1.8       -126.25E-6  51.224E-6 -449.49E-9 -58.485E-6 -129.63E-6 -325.92E-6 -437.13E-6 -41.358E-6 
 7.6E-9     1.8        1.8        119.92E-6 -51.533E-6  16.096E-6  55.45E-6   131.56E-6  277.89E-6  363.29E-6  27.633E-6 
 7.7E-9    -54.28E-12  1.8       -119.97E-6  51.986E-6 -109.62E-9 -52.945E-6 -131.75E-6 -240.21E-6 -305.07E-6 -18.001E-6 
 7.8E-9    -1.8973E-9  1.7999     169.87E-6 -62.037E-6  26.102E-6  55.969E-6  146.E-6    165.E-6    151.77E-6  2.9195E-6 
 7.9E-9    -2.3788E-9  1.7999     192.17E-6 -87.739E-6  38.08E-6   48.243E-6  122.59E-6  144.99E-6  129.33E-6  4.388E-6  
 8.E-9     -766.5E-12  1.8001    -0.0025075  109.24E-6 -24.03E-6  -51.952E-6 -164.15E-6 -174.58E-6 -154.82E-6 -3.9031E-6 
 8.1E-9    -3.0912E-9  1.8       -0.012504   118.36E-6  19.894E-6  60.703E-6  96.609E-6  127.84E-6  168.97E-6  4.155E-6  
 8.2E-9    -2.3745E-9  1.8        1.0211    -403.65E-6  13.931E-6 -63.234E-6 -91.758E-6 -103.65E-6 -56.271E-6 -4.4139E-6 
 8.3E-9    -1.7177E-9  1.8        1.7994    -0.0049535 -14.575E-6  67.02E-6   137.12E-6  101.57E-6  145.64E-6  4.8614E-6 
 8.4E-9    -1.3718E-9  1.8        1.7999     0.046805   11.367E-6 -73.274E-6 -117.44E-6  20.846E-6 -173.31E-6 -5.569E-6  
 8.5E-9    -1.1908E-9  1.7999     1.7999     1.5592     6.9983E-6 -77.401E-6 -80.348E-6 -96.948E-6 -93.319E-6 -6.7369E-6 
 8.6E-9    -1.4494E-9  1.8001     1.7999     1.7911     27.52E-6  -77.586E-6 -108.22E-6 -114.36E-6 -130.1E-6  -7.765E-6  
 8.7E-9    -2.629E-9   1.8        1.7999     1.7992     123.08E-6 -69.161E-6 -67.69E-6  -70.731E-6 -106.92E-6 -8.1705E-6 
 8.8E-9    -1.4125E-9  1.7999     1.7999     1.7999    -0.0016811 -65.147E-6 -77.845E-6 -78.41E-6  -149.13E-6 -8.546E-6  
 8.9E-9    -1.535E-9   1.8001     1.7999     1.8       -0.0084131 -83.599E-6 -106.19E-6 -104.51E-6 -89.723E-6 -8.9366E-6 
 9.E-9     -3.1422E-9  1.8        1.8001     1.7999     0.38197    102.28E-6  112.68E-6  111.18E-6  145.45E-6  12.733E-6 
 9.1E-9    -3.2604E-9  1.7999     1.8001     1.7999     1.2521     182.17E-6  75.285E-6  115.25E-6  76.844E-6  11.326E-6 
 9.2E-9    -2.9236E-9  1.8001     1.7999     1.8001     1.6928     106.15E-6 -71.839E-6 -121.37E-6 -137.82E-6 -9.2479E-6 
 9.3E-9    -4.1037E-9  1.7999     1.8001     1.8        1.7846    -0.0029097  126.96E-6  85.67E-6   94.155E-6  11.37E-6  
 9.4E-9    -3.3205E-9  1.8001     1.7999     1.8        1.7979    -0.0089454 -17.982E-6 -67.278E-6 -56.843E-6 -12.914E-6 
 9.5E-9    -4.1471E-9  1.7999     1.8001     1.7999     1.7996     0.92921    37.142E-6  122.8E-6   57.782E-6  14.96E-6  
 9.6E-9    -2.7011E-9  1.8        1.8002     1.7999     1.7999     1.8025    -862.47E-6  89.474E-6  51.222E-6  15.087E-6 
 9.7E-9    -2.7559E-9  1.7999     1.8001     1.7999     1.8        1.8001    -0.0023949  98.781E-6  99.182E-6  23.675E-6 
 9.8E-9    -5.0395E-9  1.8025     1.8001     1.7999     1.8        1.7999    -0.0069751  204.02E-6  231.41E-6  148.79E-6 
 9.9E-9    -4.6916E-9  1.554      1.7999     1.7999     1.8        1.7999     0.18692   -376.62E-6 -323.3E-6  -1.2538E-6 
 10.E-9    -3.1821E-9  0.14562    1.8001     1.7999     1.8001     1.8        1.6053    -0.0050825 -0.0061005 -0.0025278 
 10.1E-9    1.8        0.0033895  1.8        1.7999     1.7999     1.8        1.795      0.059862   0.151     -0.0081526 
 10.2E-9    1.8        257.98E-6  1.8001     1.7999     1.7999     1.8001     1.7996     1.5356     1.6822     0.50366   
 10.3E-9    1.8       -96.903E-6  1.801      1.7998     1.7999     1.8        1.8001     1.8003     1.8        1.5879    
 10.4E-9    1.8        66.605E-6  1.6642     1.7999     1.8        1.8        1.7998     1.7998     1.7998     1.7881    
 10.5E-9    1.8        3.7674E-6  0.0033186  1.8004     1.8        1.7998     1.7999     1.8001     1.8002     1.799     
 10.6E-9    1.8        41.625E-6  195.83E-6  1.7773     1.8        1.8001     1.7999     1.8001     1.8001     1.7999    
 10.7E-9    1.8       -44.613E-6 -14.146E-6 -0.039245   1.8        1.7999     1.8001     1.8        1.7999     1.8       
 10.8E-9    1.8       -19.171E-6 -4.8776E-6 -0.012504   1.7999     1.8        1.8        1.8001     1.8001     1.8       
 10.9E-9    1.8        55.886E-6 -27.244E-6  419.11E-6  1.7998     1.7999     1.7999     1.7999     1.7999     1.8       
 11.E-9     1.8       -62.166E-6  64.589E-6 -134.14E-6  1.8106     1.7999     1.8001     1.8001     1.8001     1.8       
 11.1E-9    1.8        2.5797E-6  92.145E-6 -86.653E-6  1.0053     1.7999     1.7999     1.8001     1.8001     1.8       
 11.2E-9    1.8       -1.5294E-6 -119.25E-6  103.86E-6  0.085838   1.7997     1.8001     1.7999     1.7999     1.8       
 11.3E-9    1.8        2.4806E-6  147.44E-6 -122.16E-6  0.0020726  1.8116     1.8        1.8002     1.8002     1.8       
 11.4E-9    1.8        66.634E-6 -137.05E-6  100.09E-6  86.752E-6  0.91595    1.7999     1.8        1.8        1.8       
 11.5E-9    1.8       -31.173E-6  108.91E-6 -139.51E-6  49.778E-6  562.21E-6  1.8015     1.7999     1.8001     1.7999    
 11.6E-9    1.8        15.791E-6 -110.1E-6   79.291E-6 -68.61E-6   70.22E-6   1.8211     1.8001     1.8001     1.8       
 11.7E-9    1.8        583.87E-6 -96.274E-6  107.34E-6 -18.932E-6 -24.44E-6   0.50593    1.7997     1.7996     1.7996    
 11.8E-9    1.8       -0.0088664 -78.309E-6  137.64E-6  14.988E-6 -34.154E-6  632.5E-6   1.8125     1.8089     1.8016    
 11.9E-9    1.8        1.1617    -15.982E-6  27.766E-6 -39.878E-6 -31.087E-6  85.603E-6  0.76257    0.91993    1.6778    
 12.E-9     1.8        1.7554     39.614E-6 -34.335E-6  13.09E-6   29.098E-6  116.89E-6  0.007846   0.012278   0.23665   
 12.1E-9    1.8        1.7996     50.706E-6 -89.805E-6  25.925E-6  27.629E-6  124.53E-6  0.0020016  0.003175   0.0028243 
 12.2E-9    1.8        1.7999     64.071E-6 -91.316E-6 -4.4598E-6  20.401E-6  122.94E-6  506.86E-6  827.77E-6  183.81E-6 
 12.3E-9    1.8        1.8       -99.241E-6  87.42E-6  -10.588E-6 -27.241E-6 -148.11E-6 -472.97E-6 -596.73E-6 -101.86E-6 
 12.4E-9    1.8        1.8        77.932E-6 -74.546E-6  2.9216E-6  21.412E-6  142.49E-6  392.94E-6  492.1E-6   62.936E-6 
 12.5E-9    1.8        1.8       -69.248E-6  61.272E-6 -614.8E-9  -18.223E-6 -139.37E-6 -336.33E-6 -401.62E-6 -31.11E-6  
 12.6E-9    1.8        1.8        53.962E-6 -48.875E-6  17.027E-6  19.919E-6  141.35E-6  292.78E-6  335.16E-6  16.138E-6 
 12.7E-9   -647.6E-12  1.8       -40.221E-6  70.593E-6 -1.9412E-6 -19.461E-6 -141.56E-6 -258.6E-6  -283.06E-6 -5.5734E-6 
 12.8E-9   -1.3222E-9  1.7999    -4.8647E-6  59.231E-6  17.571E-6 -35.5E-6   -130.84E-6 -116.71E-6 -136.48E-6  14.181E-6 
 12.9E-9   -2.0212E-9  1.8        197.65E-6  63.542E-6 -18.467E-6 -66.491E-6 -112.46E-6 -119.8E-6  -120.69E-6  18.436E-6 
 13.E-9    -1.0239E-9  1.8       -0.0025285 -98.447E-6  29.2E-6    52.534E-6  46.913E-6  46.358E-6  73.997E-6 -21.862E-6 
 13.1E-9   -2.9489E-9  1.8       -0.012292   124.36E-6 -24.544E-6 -71.122E-6 -49.774E-6 -46.123E-6 -55.731E-6  21.054E-6 
 13.2E-9   -2.4075E-9  1.8        1.0328    -312.83E-6  32.335E-6  68.075E-6  50.044E-6  45.148E-6  49.994E-6 -21.502E-6 
 13.3E-9   -1.7719E-9  1.8001     1.7995    -0.0050817  10.245E-6 -56.477E-6 -50.878E-6 -45.354E-6 -48.07E-6   22.246E-6 
 13.4E-9   -1.2399E-9  1.7999     1.7999     0.049203  -3.5094E-6  76.451E-6  58.06E-6   46.571E-6  48.484E-6 -23.078E-6 
 13.5E-9   -1.0154E-9  1.8        1.8        1.5652     26.448E-6  71.242E-6  52.993E-6  41.631E-6  84.742E-6 -26.641E-6 
 13.6E-9   -1.2447E-9  1.7999     1.8        1.7913     86.046E-6  76.978E-6  42.468E-6  86.729E-6  101.39E-6 -26.6E-6   
 13.7E-9   -2.3766E-9  1.8        1.8001     1.7993     44.348E-6  82.671E-6  35.766E-6  74.156E-6  78.503E-6 -26.771E-6 
 13.8E-9   -1.1209E-9  1.8        1.8001     1.7998    -0.0017891  72.927E-6  32.118E-6  50.958E-6  99.797E-6 -26.952E-6 
 13.9E-9   -1.2018E-9  1.8001     1.8001     1.7999    -0.0082982  67.413E-6  80.407E-6  56.995E-6  85.038E-6 -27.188E-6 
 14.E-9    -2.5316E-9  1.8        1.8002     1.7999     0.39795    76.036E-6  56.041E-6  43.816E-6  93.544E-6 -27.767E-6 
 14.1E-9   -2.5043E-9  1.7999     1.8001     1.7999     1.2789     180.59E-6  89.11E-6   102.76E-6  104.89E-6 -27.89E-6  
 14.2E-9   -3.6672E-9  1.8001     1.7999     1.8001     1.7002     183.78E-6 -56.639E-6 -91.082E-6 -92.287E-6  27.777E-6 
 14.3E-9   -3.3711E-9  1.8        1.8001     1.7999     1.7857    -0.0028944 -5.2204E-6  49.525E-6  67.946E-6 -30.231E-6 
 14.4E-9   -4.0568E-9  1.7999     1.7999     1.8        1.798     -0.0090804 -12.787E-6 -69.561E-6 -74.903E-6  32.035E-6 
 14.5E-9   -3.3874E-9  1.8        1.8001     1.8        1.7996     0.92494    37.93E-6   64.773E-6  108.63E-6 -34.893E-6 
 14.6E-9   -1.95E-9    1.8001     1.7999     1.8001     1.7999     1.8024    -883.34E-6  73.885E-6  76.724E-6 -43.269E-6 
 14.7E-9   -2.0218E-9  1.7999     1.8001     1.7999     1.8        1.8001    -0.0024289  94.611E-6  91.495E-6 -45.404E-6 
 14.8E-9   -4.311E-9   1.8028     1.7999     1.7999     1.8        1.7999    -0.0070684  175.06E-6  228.6E-6   201.43E-6 
 14.9E-9   -3.8936E-9  1.5433     1.8        1.8001     1.8        1.7999     0.19992   -410.82E-6 -348.72E-6  9.0132E-6 
 15.E-9    -2.378E-9   0.13622    1.8001     1.7999     1.8        1.8        1.6194    -0.0052136 -0.0062502 -0.002586  
