#Time       v(a0)      v(cout)    v(sum0)    v(sum1)    v(sum2)    v(sum3)    v(sum4)    v(sum5)    v(sum6)    v(sum7)    v(sum8)    v(sum9)    v(sum10)   v(sum11)   v(sum12)   v(sum13)   v(sum14)   v(sum15)  
 0.        -183.E-15   10.552E-9  1.8        1.8        1.8        1.8        1.8        1.8        1.8        1.8        1.8        1.8        1.8        1.8        1.8        1.8        1.8        1.8       
 100.E-12   1.8        59.013E-6  1.8        1.8        1.8        1.8001     1.7999     1.8        1.8001     1.8001     1.8        1.8        1.8002     1.8002     1.8002     1.8001     1.8        1.8001    
 200.E-12   1.8        18.378E-6  1.7999     1.8        1.8        1.7999     1.7999     1.7999     1.8        1.8        1.7999     1.8        1.8        1.8        1.8        1.8001     1.8        1.8       
 300.E-12   1.8       -7.8374E-6  1.7998     1.8        1.8        1.7999     1.8001     1.7999     1.8        1.8        1.7999     1.8        1.8        1.8        1.8001     1.8001     1.8        1.8       
 400.E-12   1.8        1.1086E-6  1.8258     1.8        1.8        1.7999     1.7999     1.7999     1.8        1.8        1.8        1.8        1.8        1.8        1.8001     1.8001     1.8        1.8001    
 500.E-12   1.8        12.72E-6   0.30244    1.7997     1.8        1.8        1.8001     1.8        1.8        1.7999     1.7999     1.8        1.8        1.8        1.8        1.8001     1.8        1.8       
 600.E-12   1.8        8.0746E-6  0.04087    1.8074     1.8        1.7999     1.7999     1.8        1.7999     1.8        1.8        1.8        1.8        1.8        1.8001     1.8001     1.8        1.7999    
 700.E-12   1.8        640.71E-9 -788.6E-6   1.2199     1.8        1.8001     1.8001     1.8        1.8001     1.8        1.7999     1.8        1.8        1.8001     1.7999     1.7999     1.8        1.8001    
 800.E-12   1.8        9.004E-6  -13.355E-6  0.0026641  1.8        1.7999     1.7999     1.8        1.8        1.8        1.8001     1.8        1.8        1.8        1.7999     1.7999     1.8        1.8       
 900.E-12   1.8       -6.9239E-6  14.381E-6  447.91E-6  1.8        1.8001     1.8        1.7999     1.8        1.7999     1.8        1.8        1.8        1.8        1.8        1.8        1.8        1.8       
 1.E-9      1.8       -11.413E-6  28.383E-6  255.09E-6  1.7999     1.8        1.8        1.8001     1.8        1.8        1.8001     1.8        1.8        1.8        1.7999     1.7999     1.8        1.8       
 1.1E-9     1.8       -9.3251E-6  34.937E-6  149.09E-6  1.8009     1.8001     1.8        1.8        1.8001     1.8        1.8        1.8        1.8        1.8        1.8001     1.7999     1.8        1.8001    
 1.2E-9     1.8        25.035E-6 -44.484E-6 -143.26E-6  1.8164     1.8        1.7999     1.7999     1.7999     1.8        1.8        1.8        1.7999     1.8        1.8001     1.8001     1.8        1.7999    
 1.3E-9     1.8        13.56E-6  -41.218E-6 -84.348E-6  0.6725     1.7999     1.8001     1.8        1.8        1.8        1.7999     1.8        1.8        1.8        1.8        1.8001     1.8        1.8       
 1.4E-9     1.8        16.768E-6 -41.793E-6 -60.876E-6  0.0071121  1.7999     1.7999     1.8        1.8        1.8        1.8001     1.8        1.8001     1.8        1.8001     1.8001     1.8        1.8       
 1.5E-9     1.8       -16.626E-6 -42.883E-6 -46.851E-6  0.0020202  1.7998     1.8        1.7999     1.8        1.8001     1.7999     1.8        1.8        1.8        1.8        1.8001     1.8        1.7999    
 1.6E-9     1.8       -11.108E-6  38.39E-6   28.51E-6  -159.96E-6  0.031268   1.8        1.8001     1.8        1.8        1.8001     1.8        1.7999     1.8        1.7999     1.7999     1.8001     1.8       
 1.7E-9     1.8       -1.3247E-6 -44.186E-6 -25.553E-6  59.308E-6 -647.57E-6  1.8        1.8        1.8        1.8        1.7999     1.8        1.8        1.8        1.8001     1.7999     1.7999     1.8       
 1.8E-9     1.8       -11.667E-6  47.775E-6  22.292E-6  2.9704E-6  123.53E-6  1.8003     1.7999     1.7999     1.8        1.7999     1.8        1.8001     1.8        1.7999     1.8001     1.8001     1.8       
 1.9E-9     1.8        13.606E-6  54.611E-6  25.544E-6  8.7946E-6  129.81E-6  1.8026     1.8        1.7999     1.7999     1.8        1.8        1.8        1.8        1.8        1.7999     1.8001     1.8       
 2.E-9      1.8       -2.6868E-6  57.439E-6  24.749E-6  11.174E-6  137.39E-6  1.8159     1.8        1.7997     1.7998     1.8        1.8        1.8        1.8        1.7999     1.7999     1.8001     1.8001    
 2.1E-9     1.8       -5.4592E-6  58.123E-6  25.154E-6  11.649E-6  51.719E-6  0.85006    1.7998     1.8044     1.8062     1.8        1.8        1.8        1.8        1.8        1.8        1.8001     1.8       
 2.2E-9     1.8        11.738E-6 -50.908E-6 -22.421E-6 -9.796E-6  -114.51E-6  0.0035891  1.8015     1.5561     1.5035     1.7999     1.8        1.8        1.7999     1.8001     1.8001     1.7999     1.8       
 2.3E-9     1.8       -3.5364E-6 -55.214E-6 -25.672E-6 -10.32E-6  -97.044E-6  217.18E-6  1.6787     0.42714    0.62635    1.7999     1.8        1.7999     1.8        1.8001     1.7999     1.7999     1.7999    
 2.4E-9     1.8       -446.15E-9  71.345E-6  29.35E-6   13.542E-6  25.247E-6  63.305E-6  0.23346    0.013173   0.076653   1.8001     1.8        1.8        1.8        1.7999     1.8001     1.8001     1.8       
 2.5E-9     1.8        15.765E-6  83.389E-6  33.524E-6  15.509E-6  112.12E-6  92.38E-6   0.0031585  29.653E-6  0.0037315  1.8        1.8        1.8        1.8        1.8001     1.8        1.8        1.8       
 2.6E-9     1.8       -1.2054E-6  88.779E-6  33.015E-6  16.004E-6  87.42E-6   102.36E-6  135.42E-6  5.7709E-6  145.14E-6  1.8001     1.8        1.8        1.8        1.7999     1.8        1.8001     1.7999    
 2.7E-9     1.8        15.067E-6  91.213E-6  33.528E-6  16.599E-6  123.96E-6  108.92E-6  36.207E-6  6.8758E-6  25.749E-6  1.7999     1.8        1.8        1.8        1.7999     1.8        1.8        1.8       
 2.8E-9     1.8       -1.8411E-6  94.547E-6  33.443E-6  16.975E-6  54.118E-6  114.21E-6  26.243E-6  12.529E-6  11.287E-6  1.8        1.8        1.8001     1.8        1.8        1.7999     1.8001     1.7999    
 2.9E-9     1.8        16.774E-6 -117.37E-6 -41.656E-6 -20.682E-6 -116.04E-6 -134.35E-6 -44.327E-6 -29.025E-6 -20.367E-6  1.8        1.8        1.8        1.8        1.8        1.8001     1.8        1.7999    
 3.E-9      1.8        8.985E-6   116.42E-6  40.175E-6  20.076E-6  122.67E-6  136.64E-6  40.318E-6  21.674E-6  12.621E-6  1.8003     1.8        1.8        1.8        1.8        1.8        1.8        1.8       
 3.1E-9     1.8       -11.464E-6 -118.45E-6 -40.245E-6 -20.453E-6 -80.59E-6  -137.73E-6 -41.622E-6 -22.244E-6 -13.016E-6  1.808      1.8        1.8        1.8        1.8001     1.8        1.8        1.8       
 3.2E-9     1.8       -4.8619E-6  115.28E-6  39.875E-6  20.576E-6  101.47E-6  135.32E-6  42.87E-6   22.537E-6  13.064E-6  1.203      1.8        1.8        1.8        1.8        1.8        1.8001     1.8       
 3.3E-9     1.8        156.92E-6 -114.54E-6 -39.593E-6 -20.637E-6 -110.85E-6 -130.31E-6 -44.281E-6 -23.274E-6 -13.353E-6  0.089943   1.8        1.8        1.7999     1.8        1.7999     1.7999     1.8       
 3.4E-9     1.8       -0.011611  -99.134E-6 -34.552E-6 -18.395E-6 -123.94E-6 -115.31E-6 -42.152E-6 -23.856E-6 -14.875E-6  0.02005    1.7998     1.7998     1.7999     1.7996     1.8005     1.7997     1.7999    
 3.5E-9     1.8        0.43482   -98.342E-6 -34.587E-6 -18.083E-6 -53.063E-6 -127.29E-6 -46.057E-6 -24.335E-6 -13.578E-6  0.0053194  1.8015     1.8071     1.8075     1.8049     1.7516     1.7999     1.8003    
 3.6E-9     1.8        1.1163    -88.176E-6 -30.637E-6 -16.288E-6 -139.04E-6 -135.75E-6 -44.336E-6 -21.593E-6 -10.822E-6  72.716E-6  1.7316     1.4579     1.187      1.3691     82.511E-6  1.824      1.8142    
 3.7E-9     1.8        1.5629    -115.55E-6 -38.053E-6 -21.199E-6 -145.75E-6 -106.11E-6 -56.801E-6 -25.813E-6 -12.62E-6  -87.248E-6  1.0181     0.43458    0.23497    0.007958  -9.0267E-6  0.35604    1.0834    
 3.8E-9     1.8        1.7347    -118.58E-6 -48.041E-6 -26.185E-6 -87.969E-6 -59.837E-6 -43.933E-6  30.161E-6 -13.707E-6 -132.82E-6  0.29507    0.018601   0.006726   0.0017307 -29.535E-6  0.043224   0.043102  
 3.9E-9     1.8        1.7839    -108.9E-6  -48.734E-6 -27.99E-6  -129.41E-6 -115.43E-6 -57.924E-6 -23.512E-6 -18.808E-6 -88.02E-6   0.029745   311.71E-6  126.54E-6  428.54E-6 -3.4374E-6  0.011191   125.05E-6 
 4.E-9      1.8        1.796     -108.69E-6 -48.192E-6 -28.71E-6  -152.52E-6 -144.03E-6 -41.901E-6 -29.483E-6 -19.233E-6 -111.82E-6  0.0021421  10.014E-6  12.745E-6  236.59E-6  39.898E-6  0.0030246 -4.8909E-6 
 4.1E-9     1.8        1.799     -99.306E-6 -48.953E-6 -29.192E-6 -160.69E-6 -67.18E-6  -53.35E-6  -31.248E-6 -19.232E-6 -131.7E-6   171.58E-6 -11.619E-6 -9.6858E-6  156.96E-6  68.483E-6  860.43E-6 -30.955E-6 
 4.2E-9     8.5009E-9  1.7998     118.92E-6  60.467E-6  36.045E-6  201.69E-6  125.4E-6   84.554E-6  58.494E-6  41.562E-6  171.19E-6  7.3735E-6  31.327E-6  31.328E-6 -175.04E-6 -98.321E-6 -722.39E-6  60.149E-6 
 4.3E-9    -11.672E-9  1.8       -81.202E-6 -61.92E-6  -40.317E-6 -102.78E-6 -9.8146E-6 -57.626E-6  32.648E-6 -2.5364E-6 -154.47E-6  12.647E-6 -27.925E-6 -56.154E-6  130.E-6    119.2E-6  -30.002E-6 -27.615E-6 
 4.4E-9     7.0301E-9  1.8       -51.272E-6  75.201E-6  55.061E-6  145.76E-6 -161.89E-9  52.856E-6  41.263E-6  18.007E-6  15.287E-6 -5.3338E-6  39.334E-6  16.847E-6 -52.143E-6 -46.217E-6  58.803E-6  27.902E-6 
 4.5E-9    -12.411E-9  1.8       -0.016566  -6.7844E-6 -47.976E-6 -114.21E-6 -122.16E-6 -29.465E-6 -9.0051E-6 -1.8192E-6 -103.46E-6  3.2996E-6 -8.6942E-6  3.6221E-6  120.97E-6 -2.9951E-6 -37.874E-6 -13.789E-6 
 4.6E-9    -14.319E-9  1.8        1.1514     98.852E-6 -52.197E-6 -118.84E-6 -135.9E-6  -43.18E-6  -22.964E-6 -9.8936E-6 -120.97E-6  7.9251E-6 -23.035E-6 -12.554E-6  110.48E-6  128.33E-6 -41.898E-6 -32.204E-6 
 4.7E-9     7.9552E-9  1.8001     1.7982    -0.012203   71.848E-6  66.978E-6  180.38E-6  12.949E-6  18.992E-6  19.853E-6  115.18E-6 -8.0171E-6  28.453E-6  24.773E-6 -144.84E-6 -118.71E-6  44.074E-6  29.257E-6 
 4.8E-9    -12.82E-9   1.7999     1.7998     0.76022   -96.664E-6 -65.048E-6 -108.38E-6 -17.31E-6   14.335E-6 -9.2359E-6 -183.19E-6  3.6824E-6 -17.38E-6   34.901E-6  15.578E-6  172.37E-6 -51.061E-6 -28.816E-6 
 4.9E-9    -10.544E-9  1.8        1.7999     1.8242    -115.65E-6 -74.317E-6 -147.59E-6 -38.881E-6 -21.114E-6 -10.435E-6 -158.79E-6  7.0006E-6 -16.12E-6  -2.2668E-6  103.23E-6  174.3E-6  -53.773E-6 -32.213E-6 
 5.E-9     -12.88E-9   1.8        1.7999     1.8014     38.293E-6 -94.308E-6 -99.493E-6 -57.987E-6 -20.737E-6 -10.137E-6 -164.86E-6  8.7014E-6 -24.61E-6  -14.234E-6  136.1E-6   177.87E-6 -45.957E-6 -31.531E-6 
 5.1E-9    -12.414E-9  1.7999     1.7999     1.8002     35.939E-6 -57.25E-6  -129.27E-6 -17.719E-6  3.4636E-6 -5.9322E-6 -127.71E-6  9.1567E-6 -22.092E-6 -21.9E-6    154.13E-6  167.66E-6 -46.979E-6 -31.235E-6 
 5.2E-9    -12.01E-9   1.8        1.7999     1.7999    -0.0019208 -58.468E-6 -87.653E-6 -44.554E-6 -20.865E-6 -14.081E-6 -139.13E-6  8.8664E-6 -16.876E-6 -19.145E-6  159.06E-6  162.87E-6 -40.002E-6 -31.394E-6 
 5.3E-9     7.1561E-9  1.8        1.8001     1.8001    -0.011715   107.02E-6  147.8E-6   36.779E-6  24.423E-6  9.9701E-6  118.57E-6 -11.809E-6  18.271E-6  26.624E-6 -134.95E-6 -132.96E-6  38.819E-6  34.849E-6 
 5.4E-9     5.397E-9   1.8        1.8001     1.8001     0.68112    388.17E-6  47.471E-6  30.587E-6 -9.7433E-6 -14.774E-6  30.805E-6 -6.774E-6  -27.758E-6  18.913E-6 -35.03E-6  -95.425E-6  45.533E-6  35.467E-6 
 5.5E-9     6.8947E-9  1.8        1.8001     1.8001     1.8306    -0.0027158  86.668E-6  33.781E-6  14.76E-6   1.2899E-6  100.98E-6 -9.6124E-6  7.5882E-6  19.08E-6  -107.76E-6 -129.82E-6  41.522E-6  34.399E-6 
 5.6E-9     3.8796E-9  1.8        1.8001     1.8001     1.8018     0.072341   36.242E-6  15.588E-6 -5.74E-6    16.663E-6  139.57E-6 -10.255E-6  23.245E-6  21.565E-6 -142.89E-6 -143.43E-6  38.911E-6  34.029E-6 
 5.7E-9     5.6595E-9  1.8001     1.8001     1.8001     1.8001     1.6581    -33.485E-6  47.201E-6  19.392E-6 -14.055E-6  100.95E-6 -10.421E-6  19.75E-6   19.364E-6 -151.86E-6 -162.69E-6  41.937E-6  34.312E-6 
 5.8E-9     7.0149E-9  1.8        1.8001     1.8001     1.7999     1.794     -14.142E-6  45.367E-6  18.808E-6  2.8063E-6  132.4E-6  -10.545E-6  20.666E-6  17.807E-6 -159.04E-6 -164.05E-6  37.706E-6  34.534E-6 
 5.9E-9     7.3364E-9  1.8        1.8001     1.8001     1.7999     1.7992    -614.64E-6  11.354E-6 -8.4101E-6  16.171E-6  129.26E-6 -8.5463E-6  19.944E-6  12.624E-6 -125.51E-6 -173.E-6    33.889E-6  35.098E-6 
 6.E-9      4.7756E-9  1.8        1.8001     1.8001     1.7999     1.8       -0.0022109  31.415E-6  87.463E-6  147.3E-6   93.161E-6 -8.8028E-6  15.244E-6  21.738E-6 -145.94E-6 -163.95E-6  36.727E-6  35.566E-6 
 6.1E-9    -15.363E-9  1.8        1.7998     1.7999     1.8        1.7999    -0.0066261 -52.131E-6 -72.783E-6 -718.81E-6 -136.56E-6  8.1914E-6 -18.634E-6 -26.475E-6  149.97E-6  142.41E-6 -40.001E-6 -39.63E-6  
 6.2E-9    -16.173E-9  1.8        1.8001     1.7999     1.8        1.7999     0.14132    213.47E-6 -0.012738  -0.0086471 -119.34E-6  16.188E-6  8.3915E-6  14.074E-6  152.53E-6 -47.294E-6 -39.835E-6 -36.427E-6 
 6.3E-9    -17.683E-9  1.8        1.7998     1.7999     1.8        1.8        1.6888    -0.0094587  0.45953    0.4474    -92.832E-6  253.08E-9 -14.532E-6 -25.315E-6  131.83E-6  131.12E-6 -58.766E-6 -39.132E-6 
 6.4E-9     4.1619E-9  1.8        1.8        1.8001     1.8        1.7999     1.7997     0.36935    1.3167     1.1165     38.885E-6 -2.7493E-6 -19.023E-6 -4.2013E-6 -112.5E-6  -161.29E-6  60.822E-6 -36.366E-6 
 6.5E-9     7.6113E-9  1.8001     1.8        1.8        1.8        1.8001     1.7999     1.5385     1.7061     1.558      87.244E-6  2.6471E-6  7.88E-6    9.1772E-6 -79.251E-6 -144.18E-6  79.731E-6  31.384E-6 
 6.6E-9     9.1547E-9  1.8        1.8001     1.8001     1.8        1.8001     1.8        1.79       1.787      1.7324     56.748E-6 -5.6111E-6 -5.7448E-6  15.691E-6 -75.068E-6 -88.891E-6  82.944E-6  39.928E-6 
 6.7E-9    -12.843E-9  1.8        1.7998     1.7999     1.7999     1.7998     1.7999     1.8023     1.7996     1.7868    -92.812E-6  15.329E-6 -33.025E-6 -10.866E-6  93.569E-6  135.68E-6 -105.04E-6 -7.9754E-6 
 6.8E-9     6.3153E-9  1.8        1.8001     1.8        1.8001     1.8        1.8001     1.7997     1.8        1.7981     88.196E-6 -4.8615E-6 -1.2297E-6 -5.6601E-6 -104.98E-6 -110.23E-6  95.837E-6  27.868E-6 
 6.9E-9    -16.701E-9  1.8        1.8        1.8        1.7999     1.8001     1.7999     1.8        1.8        1.7997     56.707E-6  8.0543E-6  41.518E-6  8.79E-6    89.285E-6  100.4E-6  -87.788E-6 -33.485E-6 
 7.E-9      3.5143E-9  1.8        1.8        1.8        1.8001     1.8        1.8001     1.7999     1.8        1.7999    -294.43E-6 -5.3331E-6  2.5103E-6  8.8857E-6 -80.168E-6 -86.356E-6  86.804E-6  37.966E-6 
 7.1E-9    -16.774E-9  1.8        1.7999     1.7999     1.7999     1.7999     1.7999     1.8001     1.8        1.8       -0.0060371  2.9464E-6 -7.3735E-6 -10.811E-6  99.293E-6  105.73E-6 -84.419E-6 -40.401E-6 
 7.2E-9     2.7792E-9  1.8        1.8        1.8        1.8001     1.8        1.8001     1.8        1.8        1.8        0.45194   -3.5369E-6 -5.653E-6  -8.4328E-6 -112.79E-6 -94.616E-6  79.754E-6 -3.0424E-6 
 7.3E-9    -19.475E-9  1.7999     1.8        1.8        1.7999     1.8        1.7999     1.8        1.8        1.8        1.5692     2.3591E-6  4.469E-6   93.68E-6   106.15E-6  277.71E-6 -81.688E-6 -17.659E-6 
 7.4E-9    -23.77E-9   1.7033     1.7999     1.7999     1.7999     1.7999     1.7999     1.8        1.8        1.8        1.791      164.26E-6  340.34E-6 -648.01E-6  245.05E-6 -0.0026402  150.51E-6  220.05E-6 
 7.5E-9    -18.936E-9  0.89631    1.8        1.7999     1.7999     1.8        1.7999     1.8        1.8        1.8        1.799     -0.0015944 -0.0057172 -0.0055429 -0.0082841  0.038037  -824.81E-6 -0.0017409 
 7.6E-9    -14.43E-12  0.16634    1.7999     1.8001     1.8001     1.8002     1.8001     1.8        1.8001     1.8        1.7999     0.0010593  0.16189    0.50526    0.46704    1.6522    -0.013658  -0.0097958 
 7.7E-9    -20.5E-9    0.011415   1.8        1.8        1.7999     1.7999     1.7999     1.8        1.8        1.8001     1.7999     0.46774    0.9637     1.2608     1.8021     1.8        1.4528     0.61329   
 7.8E-9    -15.329E-9  364.94E-6  1.8        1.7998     1.7999     1.8        1.7998     1.7999     1.8001     1.8        1.7999     1.0656     1.5422     1.6615     1.8        1.7999     1.8026     1.5273    
 7.9E-9    -12.452E-9  40.48E-6   1.7999     1.8        1.7999     1.8001     1.8001     1.8        1.8        1.8        1.7999     1.495      1.7454     1.7741     1.7999     1.8        1.7998     1.7745    
 8.E-9     -11.536E-9  20.013E-6  1.8        1.7999     1.7999     1.8        1.7999     1.8        1.7999     1.8        1.7999     1.6974     1.7902     1.7952     1.8        1.8001     1.8        1.7982    
 8.1E-9     1.8        24.01E-6   1.7999     1.8001     1.7999     1.7999     1.7998     1.7999     1.8        1.8        1.8        1.7697     1.7983     1.7991     1.8001     1.8001     1.8        1.7999    
 8.2E-9     1.8        23.387E-6  1.7999     1.8        1.7999     1.8        1.7999     1.7999     1.8001     1.8        1.7999     1.7911     1.7996     1.7998     1.8001     1.8001     1.8        1.8       
 8.3E-9     1.8       -21.315E-6  1.7997     1.8001     1.8001     1.8002     1.8002     1.8001     1.7999     1.8001     1.8001     1.7973     1.7999     1.8        1.7999     1.7998     1.8001     1.8       
 8.4E-9     1.8        2.0811E-6  1.8279     1.8001     1.8002     1.7999     1.8001     1.7999     1.8        1.7999     1.7998     1.7991     1.8001     1.8        1.8002     1.7999     1.8001     1.7999    
 8.5E-9     1.8        58.365E-6  0.11814    1.7994     1.7998     1.7999     1.7998     1.7999     1.7999     1.8        1.7999     1.7997     1.8        1.8        1.8001     1.8001     1.7999     1.7998    
 8.6E-9     1.8        1.9043E-6  86.566E-6  1.8095     1.8001     1.8002     1.8        1.8        1.8        1.8        1.8        1.8        1.8        1.7999     1.7999     1.8002     1.8001     1.8       
 8.7E-9     1.8        15.042E-6  49.363E-6  1.0112     1.7999     1.8001     1.8001     1.8        1.7999     1.8        1.7999     1.8        1.8        1.7999     1.7999     1.7999     1.7999     1.8       
 8.8E-9     1.8        8.2568E-6  71.887E-6 -0.035374   1.8        1.8        1.8        1.7999     1.8        1.8        1.8001     1.8        1.8        1.8        1.8        1.8        1.8001     1.8       
 8.9E-9     1.8       -11.201E-6  93.661E-6 -0.0085683  1.8        1.8        1.8001     1.8        1.8        1.7999     1.8        1.8        1.8        1.8        1.7999     1.7999     1.7999     1.7999    
 9.E-9      1.8        26.551E-6 -108.74E-6  235.11E-6  1.7997     1.8001     1.7999     1.7999     1.8001     1.7999     1.8001     1.8        1.8        1.8        1.8001     1.7999     1.8001     1.8001    
 9.1E-9     1.8       -39.332E-6  137.44E-6  76.59E-6   1.8012     1.8001     1.7999     1.8002     1.8        1.8001     1.7999     1.8        1.8001     1.8001     1.8        1.8001     1.8001     1.8       
 9.2E-9     1.8        36.486E-6 -122.64E-6 -153.38E-6  1.8219     1.8        1.8        1.7999     1.7999     1.8        1.8001     1.8        1.7999     1.8        1.8        1.8        1.7999     1.8       
 9.3E-9     1.8       -4.1892E-6 -91.162E-6 -84.004E-6  0.5605     1.7999     1.8        1.8        1.8        1.8001     1.7999     1.8        1.8        1.8001     1.8001     1.8001     1.8001     1.8       
